date Son Mai 5 10:48:53.159 2024
base hex  timestamps absolute
internal events logged
// version 15.4.0
// Measurement UUID: 24c2bc61-db19-4a76-a5d4-35b9ef85a53c
Begin TriggerBlock Son Mai 5 10:48:53.159 2024
   0.000000 Start of measurement
   0.005026 1  102             Rx   d 8 04 03 1C 00 00 00 00 23  Length = 233911 BitCount = 121 ID = 258
   0.005264 1  103             Rx   d 8 FF FF 2C 04 6E 00 00 9C  Length = 229910 BitCount = 119 ID = 259
   0.005508 1  104             Rx   d 8 D2 19 00 00 00 00 00 EB  Length = 235910 BitCount = 122 ID = 260
   0.005756 1  105             Rx   d 8 10 27 00 00 00 00 00 37  Length = 239910 BitCount = 124 ID = 261
   0.006040 1  18E00000x       Rx   d 8 00 03 E7 03 2A 00 29 0F  Length = 275910 BitCount = 142 ID = 417333248x
   0.006278 1  311             Rx   d 8 02 00 00 00 4D 00 CB 02  Length = 229910 BitCount = 119 ID = 785
   0.006518 1  221             Rx   d 8 00 45 00 07 05 00 00 4E  Length = 231910 BitCount = 120 ID = 545
   0.006804 1  18E00100x       Rx   d 8 03 24 00 01 01 00 50 01  Length = 277910 BitCount = 143 ID = 417333504x
   0.016072 1  112             Rx   d 8 00 00 3A 34 00 00 00 00  Length = 235910 BitCount = 122 ID = 274
   0.022011 1  305             Rx   d 8 00 33 01 22 08 02 02 00  Length = 233910 BitCount = 121 ID = 773
   0.022249 1  306             Rx   d 8 00 33 01 22 08 03 01 01  Length = 229910 BitCount = 119 ID = 774
   0.022539 1  18E0000Bx       Rx   d 8 00 00 00 00 00 00 01 00  Length = 281911 BitCount = 145 ID = 417333259x
   0.024415 1  204             Rx   d 8 22 FF FF FF FF FF FF FF  Length = 241911 BitCount = 125 ID = 516
   0.024653 1  205             Rx   d 8 23 0F 12 0C 0F 05 00 00  Length = 229910 BitCount = 119 ID = 517
   0.024898 1  206             Rx   d 8 35 04 35 02 00 00 00 00  Length = 235926 BitCount = 122 ID = 518
   0.026080 1  113             Rx   d 8 01 01 00 00 00 00 00 00  Length = 239910 BitCount = 124 ID = 275
   0.029996 1  102             Rx   d 8 04 03 1C 00 00 00 00 23  Length = 233910 BitCount = 121 ID = 258
   0.030234 1  103             Rx   d 8 FF FF 2C 04 6E 00 00 9C  Length = 229910 BitCount = 119 ID = 259
   0.030478 1  104             Rx   d 8 D2 19 00 00 00 00 00 EB  Length = 235926 BitCount = 122 ID = 260
   0.030726 1  105             Rx   d 8 10 27 00 00 00 00 00 37  Length = 239910 BitCount = 124 ID = 261
   0.031016 1  18E00000x       Rx   d 8 00 03 E7 03 2A 00 24 0F  Length = 281926 BitCount = 145 ID = 417333248x
   0.031303 1  18E00100x       Rx   d 8 03 24 00 01 01 00 50 01  Length = 277911 BitCount = 143 ID = 417333504x
   0.045128 1  102             Rx   d 8 04 03 1C 00 00 00 00 23  Length = 233926 BitCount = 121 ID = 258
   0.045366 1  103             Rx   d 8 FF FF 2C 04 6E 00 00 9C  Length = 229911 BitCount = 119 ID = 259
   0.045610 1  104             Rx   d 8 D2 19 00 00 00 00 00 EB  Length = 235926 BitCount = 122 ID = 260
   0.045858 1  105             Rx   d 8 10 27 00 00 00 00 00 37  Length = 239910 BitCount = 124 ID = 261
   0.046142 1  18E00000x       Rx   d 8 00 03 E7 03 2A 00 29 0F  Length = 275925 BitCount = 142 ID = 417333248x
   0.046428 1  18E00100x       Rx   d 8 03 24 00 01 01 00 50 01  Length = 277910 BitCount = 143 ID = 417333504x
   0.048163 CAN 1 Status:chip status error active
   0.065168 1  102             Rx   d 8 04 03 1C 00 00 00 00 23  Length = 233910 BitCount = 121 ID = 258
   0.065406 1  103             Rx   d 8 FF FF 2C 04 6E 00 00 9C  Length = 229910 BitCount = 119 ID = 259
   0.065650 1  104             Rx   d 8 D2 19 00 00 00 00 00 EB  Length = 235911 BitCount = 122 ID = 260
   0.065898 1  105             Rx   d 8 10 27 00 00 00 00 00 37  Length = 239910 BitCount = 124 ID = 261
   0.066186 1  18E00000x       Rx   d 8 00 03 E7 03 2A 00 26 0F  Length = 279910 BitCount = 144 ID = 417333248x
   0.066472 1  18E00100x       Rx   d 8 03 24 00 01 01 00 50 01  Length = 277910 BitCount = 143 ID = 417333504x
   0.085200 1  102             Rx   d 8 04 03 1C 00 00 00 00 23  Length = 233911 BitCount = 121 ID = 258
   0.085438 1  103             Rx   d 8 FF FF 2C 04 6E 00 00 9C  Length = 229910 BitCount = 119 ID = 259
   0.085682 1  104             Rx   d 8 D2 19 00 00 00 00 00 EB  Length = 235910 BitCount = 122 ID = 260
   0.085930 1  105             Rx   d 8 10 27 00 00 00 00 00 37  Length = 239911 BitCount = 124 ID = 261
   0.086220 1  18E00000x       Rx   d 8 00 03 E7 03 2A 00 24 0F  Length = 281910 BitCount = 145 ID = 417333248x
   0.086506 1  18E00100x       Rx   d 8 03 24 00 01 01 00 50 01  Length = 277910 BitCount = 143 ID = 417333504x
   0.105258 1  102             Rx   d 8 04 03 1C 00 00 00 00 23  Length = 233926 BitCount = 121 ID = 258
   0.105496 1  103             Rx   d 8 FF FF 2C 04 6E 00 00 9C  Length = 229910 BitCount = 119 ID = 259
   0.105740 1  104             Rx   d 8 D2 19 00 00 00 00 00 EB  Length = 235926 BitCount = 122 ID = 260
   0.105988 1  105             Rx   d 8 10 27 00 00 00 00 00 37  Length = 239910 BitCount = 124 ID = 261
   0.106278 1  18E00000x       Rx   d 8 00 03 E7 03 2A 00 24 0F  Length = 281926 BitCount = 145 ID = 417333248x
   0.106518 1  221             Rx   d 8 00 45 00 07 05 00 00 4E  Length = 231910 BitCount = 120 ID = 545
   0.106804 1  18E00100x       Rx   d 8 03 24 00 01 01 00 50 01  Length = 277925 BitCount = 143 ID = 417333504x
   0.107060 1  311             Rx   d 8 02 00 00 00 4D 00 CB 02  Length = 229911 BitCount = 119 ID = 785
   0.117076 1  112             Rx   d 8 00 00 3A 34 00 00 00 00  Length = 235911 BitCount = 122 ID = 274
   0.123247 1  303             Rx   d 8 03 03 01 02 00 00 00 00  Length = 239910 BitCount = 124 ID = 771
   0.123487 1  302             Rx   d 8 18 05 05 00 10 33 24 00  Length = 231911 BitCount = 120 ID = 770
   0.123731 1  304             Rx   d 8 04 30 34 33 00 00 00 00  Length = 235910 BitCount = 122 ID = 772
   0.124645 1  201             Rx   d 8 00 00 C8 00 00 00 07 CF  Length = 237910 BitCount = 123 ID = 513
   0.124891 1  202             Rx   d 8 09 01 00 00 00 00 00 0A  Length = 237925 BitCount = 123 ID = 514
   0.125123 1  203             Rx   d 8 84 22 CF C8 23 F2 84 3C  Length = 223910 BitCount = 116 ID = 515
   0.126342 1  102             Rx   d 8 04 03 1C 00 00 00 00 23  Length = 233911 BitCount = 121 ID = 258
   0.126580 1  103             Rx   d 8 FF FF 2C 04 6E 00 00 9C  Length = 229910 BitCount = 119 ID = 259
   0.126824 1  104             Rx   d 8 D2 19 00 00 00 00 00 EB  Length = 235910 BitCount = 122 ID = 260
   0.127072 1  105             Rx   d 8 10 27 00 00 00 00 00 37  Length = 239910 BitCount = 124 ID = 261
   0.127320 1  113             Rx   d 8 01 01 00 00 00 00 00 00  Length = 239910 BitCount = 124 ID = 275
   0.127610 1  18E00000x       Rx   d 8 00 03 E7 03 2A 00 24 0F  Length = 281911 BitCount = 145 ID = 417333248x
   0.127896 1  18E00100x       Rx   d 8 03 24 00 01 01 00 50 01  Length = 277910 BitCount = 143 ID = 417333504x
   0.145347 1  102             Rx   d 8 04 03 1C 00 00 00 00 23  Length = 233910 BitCount = 121 ID = 258
   0.145586 1  103             Rx   d 8 FF FF 2C 04 6E 00 00 9C  Length = 229910 BitCount = 119 ID = 259
   0.145830 1  104             Rx   d 8 D2 19 00 00 00 00 00 EB  Length = 235911 BitCount = 122 ID = 260
   0.146078 1  105             Rx   d 8 10 27 00 00 00 00 00 37  Length = 239910 BitCount = 124 ID = 261
   0.146368 1  18E00000x       Rx   d 8 00 03 E7 03 2A 00 24 0F  Length = 281910 BitCount = 145 ID = 417333248x
   0.146654 1  18E00100x       Rx   d 8 03 24 00 01 01 00 50 01  Length = 277911 BitCount = 143 ID = 417333504x
   0.165397 1  102             Rx   d 8 04 03 1C 00 00 00 00 23  Length = 233925 BitCount = 121 ID = 258
   0.165636 1  103             Rx   d 8 FF FF 2C 04 6E 00 00 9C  Length = 229910 BitCount = 119 ID = 259
   0.165880 1  104             Rx   d 8 D2 19 00 00 00 00 00 EB  Length = 235926 BitCount = 122 ID = 260
   0.166128 1  105             Rx   d 8 10 27 00 00 00 00 00 37  Length = 239911 BitCount = 124 ID = 261
   0.166414 1  18E00000x       Rx   d 8 00 03 E7 03 2A 00 2B 0F  Length = 277926 BitCount = 143 ID = 417333248x
   0.166700 1  18E00100x       Rx   d 8 03 24 00 01 01 00 50 01  Length = 277911 BitCount = 143 ID = 417333504x
   0.167060 1  315             Rx   d 8 05 05 03 03 02 00 03 03  Length = 231911 BitCount = 120 ID = 789
   0.181074 1  318             Rx   d 8 00 15 4B 5D 85 01 00 00  Length = 227910 BitCount = 118 ID = 792
   0.185454 1  102             Rx   d 8 04 03 1C 00 00 00 00 23  Length = 233910 BitCount = 121 ID = 258
   0.185692 1  103             Rx   d 8 FF FF 2C 04 6E 00 00 9C  Length = 229910 BitCount = 119 ID = 259
   0.185937 1  104             Rx   d 8 D2 19 00 00 00 00 00 EB  Length = 235910 BitCount = 122 ID = 260
   0.186185 1  105             Rx   d 8 10 27 00 00 00 00 00 37  Length = 239911 BitCount = 124 ID = 261
   0.186475 1  18E00000x       Rx   d 8 00 03 E7 03 2A 00 24 0F  Length = 281910 BitCount = 145 ID = 417333248x
   0.186761 1  18E00100x       Rx   d 8 03 24 00 01 01 00 50 01  Length = 277910 BitCount = 143 ID = 417333504x
   0.205500 1  102             Rx   d 8 04 03 1C 00 00 00 00 23  Length = 233910 BitCount = 121 ID = 258
   0.205738 1  103             Rx   d 8 FF FF 2C 04 6E 00 00 9C  Length = 229910 BitCount = 119 ID = 259
   0.205982 1  104             Rx   d 8 D2 19 00 00 00 00 00 EB  Length = 235910 BitCount = 122 ID = 260
   0.206231 1  105             Rx   d 8 10 27 00 00 00 00 00 37  Length = 239910 BitCount = 124 ID = 261
   0.206471 1  221             Rx   d 8 00 45 00 07 05 00 00 4E  Length = 231911 BitCount = 120 ID = 545
   0.206761 1  18E00000x       Rx   d 8 00 03 E7 03 2A 00 24 0F  Length = 281910 BitCount = 145 ID = 417333248x
   0.207047 1  18E00100x       Rx   d 8 03 24 00 01 01 00 50 01  Length = 277910 BitCount = 143 ID = 417333504x
   0.208071 1  311             Rx   d 8 02 00 00 00 4D 00 CB 02  Length = 229911 BitCount = 119 ID = 785
   0.218079 1  112             Rx   d 8 00 00 3A 34 00 00 00 00  Length = 235911 BitCount = 122 ID = 274
   0.224865 1  204             Rx   d 8 E0 35 35 35 35 FF FF FF  Length = 229910 BitCount = 119 ID = 516
   0.225103 1  205             Rx   d 8 23 0F 12 0C 0F 05 00 00  Length = 229910 BitCount = 119 ID = 517
   0.225345 1  206             Rx   d 8 36 04 35 02 00 00 00 00  Length = 233911 BitCount = 121 ID = 518
   0.228073 1  113             Rx   d 8 01 01 00 00 00 00 00 00  Length = 239911 BitCount = 124 ID = 275
   0.230444 1  102             Rx   d 8 04 03 1C 00 00 00 00 23  Length = 233910 BitCount = 121 ID = 258
   0.230682 1  103             Rx   d 8 FF FF 2C 04 6E 00 00 9C  Length = 229911 BitCount = 119 ID = 259
   0.230926 1  104             Rx   d 8 D2 19 00 00 00 00 00 EB  Length = 235910 BitCount = 122 ID = 260
   0.231174 1  105             Rx   d 8 10 27 00 00 00 00 00 37  Length = 239910 BitCount = 124 ID = 261
   0.231462 1  18E00000x       Rx   d 8 00 03 E7 03 2A 00 22 0F  Length = 279911 BitCount = 144 ID = 417333248x
   0.231748 1  18E00100x       Rx   d 8 03 24 00 01 01 00 50 01  Length = 277910 BitCount = 143 ID = 417333504x
   0.245567 1  102             Rx   d 8 04 03 1C 00 00 00 00 23  Length = 233911 BitCount = 121 ID = 258
   0.245805 1  103             Rx   d 8 FF FF 2C 04 6E 00 00 9C  Length = 229910 BitCount = 119 ID = 259
   0.246049 1  104             Rx   d 8 D2 19 00 00 00 00 00 EB  Length = 235910 BitCount = 122 ID = 260
   0.246298 1  105             Rx   d 8 10 27 00 00 00 00 00 37  Length = 239910 BitCount = 124 ID = 261
   0.246588 1  18E00000x       Rx   d 8 00 03 E7 03 2A 00 24 0F  Length = 281910 BitCount = 145 ID = 417333248x
   0.246874 1  18E00100x       Rx   d 8 03 24 00 01 01 00 50 01  Length = 277911 BitCount = 143 ID = 417333504x
   0.265639 1  102             Rx   d 8 04 03 1C 00 00 00 00 23  Length = 233910 BitCount = 121 ID = 258
   0.265877 1  103             Rx   d 8 FF FF 2C 04 6E 00 00 9C  Length = 229911 BitCount = 119 ID = 259
   0.266121 1  104             Rx   d 8 D2 19 00 00 00 00 00 EB  Length = 235910 BitCount = 122 ID = 260
   0.266370 1  105             Rx   d 8 10 27 00 00 00 00 00 37  Length = 239910 BitCount = 124 ID = 261
   0.266658 1  18E00000x       Rx   d 8 00 03 E7 03 2A 00 22 0F  Length = 279910 BitCount = 144 ID = 417333248x
   0.266944 1  18E00100x       Rx   d 8 03 24 00 01 01 00 50 01  Length = 277910 BitCount = 143 ID = 417333504x
   0.285689 1  102             Rx   d 8 04 03 1C 00 00 00 00 23  Length = 233926 BitCount = 121 ID = 258
   0.285925 1  103             Rx   d 8 FE FF 2C 04 6E 00 00 9B  Length = 227911 BitCount = 118 ID = 259
   0.286169 1  104             Rx   d 8 D2 19 00 00 00 00 00 EB  Length = 235926 BitCount = 122 ID = 260
   0.286418 1  105             Rx   d 8 10 27 00 00 00 00 00 37  Length = 239910 BitCount = 124 ID = 261
   0.286706 1  18E00000x       Rx   d 8 00 03 E7 03 2A 00 22 0F  Length = 279925 BitCount = 144 ID = 417333248x
   0.286992 1  18E00100x       Rx   d 8 03 24 00 01 01 00 50 01  Length = 277910 BitCount = 143 ID = 417333504x
   0.305721 1  102             Rx   d 8 04 03 1C 00 00 00 00 23  Length = 233910 BitCount = 121 ID = 258
   0.305957 1  103             Rx   d 8 FE FF 2C 04 6E 00 00 9B  Length = 227910 BitCount = 118 ID = 259
   0.306201 1  104             Rx   d 8 D2 19 00 00 00 00 00 EB  Length = 235911 BitCount = 122 ID = 260
   0.306450 1  105             Rx   d 8 10 27 00 00 00 00 00 37  Length = 239910 BitCount = 124 ID = 261
   0.306738 1  18E00000x       Rx   d 8 00 03 E7 03 2A 00 26 0F  Length = 279910 BitCount = 144 ID = 417333248x
   0.307024 1  18E00100x       Rx   d 8 03 24 00 01 01 00 50 01  Length = 277910 BitCount = 143 ID = 417333504x
   0.309066 1  311             Rx   d 8 02 00 00 00 4D 00 CB 02  Length = 229910 BitCount = 119 ID = 785
   0.313822 1  221             Rx   d 8 00 45 00 07 05 00 00 4E  Length = 231926 BitCount = 120 ID = 545
   0.319062 1  112             Rx   d 8 00 00 3A 34 00 00 00 00  Length = 235910 BitCount = 122 ID = 274
   0.323720 1  303             Rx   d 8 03 03 01 02 00 00 00 00  Length = 239911 BitCount = 124 ID = 771
   0.323960 1  302             Rx   d 8 18 05 05 00 10 33 24 00  Length = 231910 BitCount = 120 ID = 770
   0.324210 1  304             Rx   d 8 05 00 00 00 00 00 00 00  Length = 241910 BitCount = 125 ID = 772
   0.325108 1  201             Rx   d 8 00 00 C8 00 00 00 07 CF  Length = 237925 BitCount = 123 ID = 513
   0.325355 1  202             Rx   d 8 09 01 00 00 00 00 00 0A  Length = 237910 BitCount = 123 ID = 514
   0.325593 1  203             Rx   d 8 80 0E CF C3 03 F1 38 3C  Length = 229926 BitCount = 119 ID = 515
   0.326777 1  102             Rx   d 8 04 03 1C 00 00 00 00 23  Length = 233910 BitCount = 121 ID = 258
   0.327013 1  103             Rx   d 8 FE FF 2C 04 6E 00 00 9B  Length = 227910 BitCount = 118 ID = 259
   0.327257 1  104             Rx   d 8 D2 19 00 00 00 00 00 EB  Length = 235910 BitCount = 122 ID = 260
   0.327505 1  105             Rx   d 8 10 27 00 00 00 00 00 37  Length = 239910 BitCount = 124 ID = 261
   0.327790 1  18E00000x       Rx   d 8 00 03 E7 03 2A 00 29 0F  Length = 275911 BitCount = 142 ID = 417333248x
   0.328076 1  18E00100x       Rx   d 8 03 24 00 01 01 00 50 01  Length = 277910 BitCount = 143 ID = 417333504x
   0.329068 1  113             Rx   d 8 01 01 00 00 00 00 00 00  Length = 239910 BitCount = 124 ID = 275
   0.345811 1  102             Rx   d 8 04 03 1C 00 00 00 00 23  Length = 233926 BitCount = 121 ID = 258
   0.346047 1  103             Rx   d 8 FE FF 2C 04 6E 00 00 9B  Length = 227910 BitCount = 118 ID = 259
   0.346291 1  104             Rx   d 8 D2 19 00 00 00 00 00 EB  Length = 235926 BitCount = 122 ID = 260
   0.346539 1  105             Rx   d 8 10 27 00 00 00 00 00 37  Length = 239910 BitCount = 124 ID = 261
   0.346829 1  18E00000x       Rx   d 8 00 03 E7 03 2A 00 24 0F  Length = 281926 BitCount = 145 ID = 417333248x
   0.347116 1  18E00100x       Rx   d 8 03 24 00 01 01 00 50 01  Length = 277910 BitCount = 143 ID = 417333504x
   0.365871 1  102             Rx   d 8 04 03 1C 00 00 00 00 23  Length = 233910 BitCount = 121 ID = 258
   0.366107 1  103             Rx   d 8 FE FF 2C 04 6E 00 00 9B  Length = 227911 BitCount = 118 ID = 259
   0.366351 1  104             Rx   d 8 D2 19 00 00 00 00 00 EB  Length = 235910 BitCount = 122 ID = 260
   0.366599 1  105             Rx   d 8 10 27 00 00 00 00 00 37  Length = 239910 BitCount = 124 ID = 261
   0.366887 1  18E00000x       Rx   d 8 00 03 E7 03 2A 00 22 0F  Length = 279911 BitCount = 144 ID = 417333248x
   0.367174 1  18E00100x       Rx   d 8 03 24 00 01 01 00 50 01  Length = 277910 BitCount = 143 ID = 417333504x
   0.368054 1  315             Rx   d 8 05 05 03 03 02 00 03 03  Length = 231911 BitCount = 120 ID = 789
   0.385921 1  102             Rx   d 8 04 03 1C 00 00 00 00 23  Length = 233910 BitCount = 121 ID = 258
   0.386157 1  103             Rx   d 8 FE FF 2C 04 6E 00 00 9B  Length = 227926 BitCount = 118 ID = 259
   0.386401 1  104             Rx   d 8 D2 19 00 00 00 00 00 EB  Length = 235911 BitCount = 122 ID = 260
   0.386649 1  105             Rx   d 8 10 27 00 00 00 00 00 37  Length = 239910 BitCount = 124 ID = 261
   0.386939 1  18E00000x       Rx   d 8 00 03 E7 03 2A 00 24 0F  Length = 281910 BitCount = 145 ID = 417333248x
   0.387226 1  18E00100x       Rx   d 8 03 24 00 01 01 00 50 01  Length = 277926 BitCount = 143 ID = 417333504x
   0.405951 1  102             Rx   d 8 04 03 1C 00 00 00 00 23  Length = 233925 BitCount = 121 ID = 258
   0.406187 1  103             Rx   d 8 FE FF 2C 04 6E 00 00 9B  Length = 227910 BitCount = 118 ID = 259
   0.406431 1  104             Rx   d 8 D2 19 00 00 00 00 00 EB  Length = 236168 BitCount = 122 ID = 260
   0.406679 1  105             Rx   d 8 10 27 00 00 00 00 00 37  Length = 239910 BitCount = 124 ID = 261
   0.406967 1  18E00000x       Rx   d 8 00 03 E7 03 2A 00 22 0F  Length = 279926 BitCount = 144 ID = 417333248x
   0.407254 1  18E00100x       Rx   d 8 03 24 00 01 01 00 50 01  Length = 277911 BitCount = 143 ID = 417333504x
   0.410052 1  311             Rx   d 8 02 01 00 00 4D 00 CB 02  Length = 229926 BitCount = 119 ID = 785
   0.420055 1  112             Rx   d 8 00 00 3A 34 00 00 00 00  Length = 235926 BitCount = 122 ID = 274
   0.425324 1  204             Rx   d 8 E1 FF 37 36 37 3A 41 FF  Length = 225910 BitCount = 117 ID = 516
   0.425562 1  205             Rx   d 8 23 0F 12 0C 0F 05 00 00  Length = 229911 BitCount = 119 ID = 517
   0.425806 1  206             Rx   d 8 35 04 35 02 00 00 00 00  Length = 235910 BitCount = 122 ID = 518
   0.430080 1  113             Rx   d 8 01 01 00 00 00 00 00 00  Length = 239926 BitCount = 124 ID = 275
   0.430932 1  102             Rx   d 8 04 03 1C 00 00 00 00 23  Length = 233911 BitCount = 121 ID = 258
   0.431168 1  103             Rx   d 8 FE FF 2C 04 6E 00 00 9B  Length = 227926 BitCount = 118 ID = 259
   0.431412 1  104             Rx   d 8 D2 19 00 00 00 00 00 EB  Length = 235910 BitCount = 122 ID = 260
   0.431661 1  105             Rx   d 8 10 27 00 00 00 00 00 37  Length = 239926 BitCount = 124 ID = 261
   0.431949 1  18E00000x       Rx   d 8 00 03 E7 03 2A 00 22 0F  Length = 279910 BitCount = 144 ID = 417333248x
   0.432235 1  18E00100x       Rx   d 8 03 24 00 01 01 00 50 01  Length = 277925 BitCount = 143 ID = 417333504x
   0.446044 1  102             Rx   d 8 04 03 1C 00 00 00 00 23  Length = 233910 BitCount = 121 ID = 258
   0.446280 1  103             Rx   d 8 FE FF 2C 04 6E 00 00 9B  Length = 227910 BitCount = 118 ID = 259
   0.446524 1  104             Rx   d 8 D2 19 00 00 00 00 00 EB  Length = 235910 BitCount = 122 ID = 260
   0.446772 1  105             Rx   d 8 10 27 00 00 00 00 00 37  Length = 239910 BitCount = 124 ID = 261
   0.447060 1  18E00000x       Rx   d 8 00 03 E7 03 2A 00 26 0F  Length = 279911 BitCount = 144 ID = 417333248x
   0.447347 1  18E00100x       Rx   d 8 03 24 00 01 01 00 50 01  Length = 277926 BitCount = 143 ID = 417333504x
   0.466086 1  102             Rx   d 8 04 03 1C 00 00 00 00 23  Length = 233926 BitCount = 121 ID = 258
   0.466322 1  103             Rx   d 8 FE FF 2C 04 6E 00 00 9B  Length = 227910 BitCount = 118 ID = 259
   0.466566 1  104             Rx   d 8 D2 19 00 00 00 00 00 EB  Length = 235925 BitCount = 122 ID = 260
   0.466814 1  105             Rx   d 8 10 27 00 00 00 00 00 37  Length = 239910 BitCount = 124 ID = 261
   0.467102 1  18E00000x       Rx   d 8 00 03 E7 03 2A 00 22 0F  Length = 279926 BitCount = 144 ID = 417333248x
   0.467389 1  18E00100x       Rx   d 8 03 24 00 01 01 00 50 01  Length = 277910 BitCount = 143 ID = 417333504x
   0.482060 1  317             Rx   d 8 50 35 25 32 33 00 00 00  Length = 227910 BitCount = 118 ID = 791
   0.486120 1  102             Rx   d 8 04 03 1C 00 00 00 00 23  Length = 233911 BitCount = 121 ID = 258
   0.486356 1  103             Rx   d 8 FE FF 2C 04 6E 00 00 9B  Length = 227910 BitCount = 118 ID = 259
   0.486601 1  104             Rx   d 8 D2 19 00 00 00 00 00 EB  Length = 235910 BitCount = 122 ID = 260
   0.486849 1  105             Rx   d 8 10 27 00 00 00 00 00 37  Length = 239910 BitCount = 124 ID = 261
   0.487133 1  18E00000x       Rx   d 8 00 03 E7 03 2A 00 29 0F  Length = 275910 BitCount = 142 ID = 417333248x
   0.487419 1  18E00100x       Rx   d 8 03 24 00 01 01 00 50 01  Length = 277911 BitCount = 143 ID = 417333504x
   0.506180 1  102             Rx   d 8 04 03 1C 00 00 00 00 23  Length = 233910 BitCount = 121 ID = 258
   0.506416 1  103             Rx   d 8 FE FF 2C 04 6E 00 00 9B  Length = 227926 BitCount = 118 ID = 259
   0.506661 1  104             Rx   d 8 D2 19 00 00 00 00 00 EB  Length = 236152 BitCount = 122 ID = 260
   0.506909 1  105             Rx   d 8 10 27 00 00 00 00 00 37  Length = 239911 BitCount = 124 ID = 261
   0.507149 1  221             Rx   d 8 00 45 00 07 05 00 00 4E  Length = 231911 BitCount = 120 ID = 545
   0.507439 1  18E00000x       Rx   d 8 00 03 E7 03 2A 00 24 0F  Length = 281910 BitCount = 145 ID = 417333248x
   0.507725 1  18E00100x       Rx   d 8 03 24 00 01 01 00 50 01  Length = 277911 BitCount = 143 ID = 417333504x
   0.511055 1  311             Rx   d 8 02 01 00 00 4D 00 CB 02  Length = 229910 BitCount = 119 ID = 785
   0.521060 1  112             Rx   d 8 00 00 3A 34 00 00 00 00  Length = 235910 BitCount = 122 ID = 274
   0.522181 1  18E00001x       Rx   d 8 77 00 2C 04 F3 01 2C 04  Length = 271926 BitCount = 140 ID = 417333249x
   0.523171 1  305             Rx   d 8 00 33 01 22 08 02 02 00  Length = 233925 BitCount = 121 ID = 773
   0.523409 1  306             Rx   d 8 00 33 01 22 08 03 01 01  Length = 229910 BitCount = 119 ID = 774
   0.523699 1  18E0000Bx       Rx   d 8 00 00 00 00 00 00 01 00  Length = 281926 BitCount = 145 ID = 417333259x
   0.524165 1  303             Rx   d 8 03 03 01 02 00 00 00 00  Length = 239926 BitCount = 124 ID = 771
   0.524405 1  302             Rx   d 8 18 05 05 00 10 33 24 00  Length = 231911 BitCount = 120 ID = 770
   0.524639 1  304             Rx   d 8 01 30 33 4E 4D 45 30 38  Length = 225926 BitCount = 117 ID = 772
   0.525568 1  201             Rx   d 8 00 00 C8 00 00 00 07 CF  Length = 237910 BitCount = 123 ID = 513
   0.525814 1  202             Rx   d 8 09 01 00 00 00 00 00 0A  Length = 237911 BitCount = 123 ID = 514
   0.526054 1  203             Rx   d 8 81 0C 0F C8 13 F2 7C 3C  Length = 231910 BitCount = 120 ID = 515
   0.527978 1  102             Rx   d 8 04 03 1C 00 00 00 00 23  Length = 233910 BitCount = 121 ID = 258
   0.528214 1  103             Rx   d 8 FE FF 2C 04 6E 00 00 9B  Length = 227926 BitCount = 118 ID = 259
   0.528458 1  104             Rx   d 8 D2 19 00 00 00 00 00 EB  Length = 235910 BitCount = 122 ID = 260
   0.528707 1  105             Rx   d 8 10 27 00 00 00 00 00 37  Length = 239926 BitCount = 124 ID = 261
   0.528995 1  18E00000x       Rx   d 8 00 03 E7 03 2A 00 22 0F  Length = 279910 BitCount = 144 ID = 417333248x
   0.529281 1  18E00100x       Rx   d 8 03 24 00 01 01 00 50 01  Length = 277925 BitCount = 143 ID = 417333504x
   0.531065 1  113             Rx   d 8 01 01 00 00 00 00 00 00  Length = 239910 BitCount = 124 ID = 275
   0.546266 1  102             Rx   d 8 04 03 1C 00 00 00 00 23  Length = 233910 BitCount = 121 ID = 258
   0.546502 1  103             Rx   d 8 FE FF 2C 04 6E 00 00 9B  Length = 227910 BitCount = 118 ID = 259
   0.546746 1  104             Rx   d 8 D2 19 00 00 00 00 00 EB  Length = 235911 BitCount = 122 ID = 260
   0.546994 1  105             Rx   d 8 10 27 00 00 00 00 00 37  Length = 239910 BitCount = 124 ID = 261
   0.547280 1  18E00000x       Rx   d 8 00 03 E7 03 2A 00 2F 0F  Length = 277910 BitCount = 143 ID = 417333248x
   0.547567 1  18E00100x       Rx   d 8 03 24 00 01 01 00 50 01  Length = 277910 BitCount = 143 ID = 417333504x
   0.566318 1  102             Rx   d 8 04 03 1C 00 00 00 00 23  Length = 233911 BitCount = 121 ID = 258
   0.566554 1  103             Rx   d 8 FE FF 2C 04 6E 00 00 9B  Length = 227926 BitCount = 118 ID = 259
   0.566798 1  104             Rx   d 8 D2 19 00 00 00 00 00 EB  Length = 235910 BitCount = 122 ID = 260
   0.567046 1  105             Rx   d 8 10 27 00 00 00 00 00 37  Length = 239911 BitCount = 124 ID = 261
   0.567336 1  18E00000x       Rx   d 8 00 03 E7 03 2A 00 24 0F  Length = 281910 BitCount = 145 ID = 417333248x
   0.567623 1  18E00100x       Rx   d 8 03 24 00 01 01 00 50 01  Length = 277925 BitCount = 143 ID = 417333504x
   0.569053 1  315             Rx   d 8 05 05 03 03 02 00 03 03  Length = 231910 BitCount = 120 ID = 789
   0.586370 1  102             Rx   d 8 04 03 1C 00 00 00 00 23  Length = 233911 BitCount = 121 ID = 258
   0.586606 1  103             Rx   d 8 FE FF 2C 04 6E 00 00 9B  Length = 227910 BitCount = 118 ID = 259
   0.586850 1  104             Rx   d 8 D2 19 00 00 00 00 00 EB  Length = 235926 BitCount = 122 ID = 260
   0.587098 1  105             Rx   d 8 10 27 00 00 00 00 00 37  Length = 239911 BitCount = 124 ID = 261
   0.587388 1  18E00000x       Rx   d 8 00 03 E7 03 2A 00 24 0F  Length = 281926 BitCount = 145 ID = 417333248x
   0.587674 1  18E00100x       Rx   d 8 03 24 00 01 01 00 50 01  Length = 277910 BitCount = 143 ID = 417333504x
   0.606402 1  102             Rx   d 8 04 03 1C 00 00 00 00 23  Length = 233910 BitCount = 121 ID = 258
   0.606638 1  103             Rx   d 8 FE FF 2C 04 6E 00 00 9B  Length = 227926 BitCount = 118 ID = 259
   0.606882 1  104             Rx   d 8 D2 19 00 00 00 00 00 EB  Length = 235911 BitCount = 122 ID = 260
   0.607130 1  105             Rx   d 8 10 27 00 00 00 00 00 37  Length = 240152 BitCount = 124 ID = 261
   0.607370 1  221             Rx   d 8 00 45 00 07 05 00 00 4E  Length = 231926 BitCount = 120 ID = 545
   0.607658 1  18E00000x       Rx   d 8 00 03 E7 03 2A 00 22 0F  Length = 279910 BitCount = 144 ID = 417333248x
   0.607944 1  18E00100x       Rx   d 8 03 24 00 01 01 00 50 01  Length = 277910 BitCount = 143 ID = 417333504x
   0.612046 1  311             Rx   d 8 02 00 00 00 4D 00 CB 02  Length = 229910 BitCount = 119 ID = 785
   0.622056 1  112             Rx   d 8 00 00 3A 34 00 00 00 00  Length = 235910 BitCount = 122 ID = 274
   0.625794 1  204             Rx   d 8 22 FF FF FF FF FF FF FF  Length = 241926 BitCount = 125 ID = 516
   0.626032 1  205             Rx   d 8 23 0F 12 0C 0F 05 00 00  Length = 229910 BitCount = 119 ID = 517
   0.626275 1  206             Rx   d 8 36 04 35 02 00 00 00 00  Length = 233925 BitCount = 121 ID = 518
   0.631329 1  102             Rx   d 8 04 03 1C 00 00 00 00 23  Length = 233926 BitCount = 121 ID = 258
   0.631565 1  103             Rx   d 8 FE FF 2C 04 6E 00 00 9B  Length = 227911 BitCount = 118 ID = 259
   0.631809 1  104             Rx   d 8 D2 19 00 00 00 00 00 EB  Length = 235926 BitCount = 122 ID = 260
   0.632057 1  105             Rx   d 8 10 27 00 00 00 00 00 37  Length = 239910 BitCount = 124 ID = 261
   0.632306 1  113             Rx   d 8 01 01 00 00 00 00 00 00  Length = 239910 BitCount = 124 ID = 275
   0.632594 1  18E00000x       Rx   d 8 00 03 E7 03 2A 00 26 0F  Length = 279910 BitCount = 144 ID = 417333248x
   0.632880 1  18E00100x       Rx   d 8 03 24 00 01 01 00 50 01  Length = 277926 BitCount = 143 ID = 417333504x
   0.646495 1  102             Rx   d 8 04 03 1C 00 00 00 00 23  Length = 233925 BitCount = 121 ID = 258
   0.646731 1  103             Rx   d 8 FE FF 2C 04 6E 00 00 9B  Length = 227910 BitCount = 118 ID = 259
   0.646975 1  104             Rx   d 8 D2 19 00 00 00 00 00 EB  Length = 235926 BitCount = 122 ID = 260
   0.647223 1  105             Rx   d 8 10 27 00 00 00 00 00 37  Length = 239910 BitCount = 124 ID = 261
   0.647511 1  18E00000x       Rx   d 8 00 03 E7 03 2A 00 22 0F  Length = 279926 BitCount = 144 ID = 417333248x
   0.647798 1  18E00100x       Rx   d 8 03 24 00 01 01 00 50 01  Length = 277911 BitCount = 143 ID = 417333504x
   0.666541 1  102             Rx   d 8 04 03 1C 00 00 00 00 23  Length = 233910 BitCount = 121 ID = 258
   0.666777 1  103             Rx   d 8 FE FF 2C 04 6E 00 00 9B  Length = 227910 BitCount = 118 ID = 259
   0.667021 1  104             Rx   d 8 D2 19 00 00 00 00 00 EB  Length = 235910 BitCount = 122 ID = 260
   0.667269 1  105             Rx   d 8 10 27 00 00 00 00 00 37  Length = 239911 BitCount = 124 ID = 261
   0.667559 1  18E00000x       Rx   d 8 00 03 E7 03 2A 00 24 0F  Length = 281910 BitCount = 145 ID = 417333248x
   0.667846 1  18E00100x       Rx   d 8 03 24 00 01 01 00 50 01  Length = 277910 BitCount = 143 ID = 417333504x
   0.682079 1  318             Rx   d 8 01 08 00 02 00 01 00 00  Length = 237910 BitCount = 123 ID = 792
   0.686581 1  102             Rx   d 8 04 03 1C 00 00 00 00 23  Length = 233910 BitCount = 121 ID = 258
   0.686818 1  103             Rx   d 8 FE FF 2C 04 6E 00 00 9B  Length = 227925 BitCount = 118 ID = 259
   0.687062 1  104             Rx   d 8 D2 19 00 00 00 00 00 EB  Length = 235910 BitCount = 122 ID = 260
   0.687310 1  105             Rx   d 8 10 27 00 00 00 00 00 37  Length = 239910 BitCount = 124 ID = 261
   0.687600 1  18E00000x       Rx   d 8 00 03 E7 03 2A 00 24 0F  Length = 281911 BitCount = 145 ID = 417333248x
   0.687886 1  18E00100x       Rx   d 8 03 24 00 01 01 00 50 01  Length = 277926 BitCount = 143 ID = 417333504x
   0.706367 1  221             Rx   d 8 00 45 00 07 05 00 00 4E  Length = 231910 BitCount = 120 ID = 545
   0.706652 1  102             Rx   d 8 04 03 1C 00 00 00 00 23  Length = 233910 BitCount = 121 ID = 258
   0.706888 1  103             Rx   d 8 FE FF 2C 04 6E 00 00 9B  Length = 227910 BitCount = 118 ID = 259
   0.707132 1  104             Rx   d 8 D2 19 00 00 00 00 00 EB  Length = 235925 BitCount = 122 ID = 260
   0.707380 1  105             Rx   d 8 10 27 00 00 00 00 00 37  Length = 239910 BitCount = 124 ID = 261
   0.707670 1  18E00000x       Rx   d 8 00 03 E7 03 2A 00 24 0F  Length = 281926 BitCount = 145 ID = 417333248x
   0.707956 1  18E00100x       Rx   d 8 03 24 00 01 01 00 50 01  Length = 277910 BitCount = 143 ID = 417333504x
   0.713034 1  311             Rx   d 8 02 00 00 00 4D 00 CB 02  Length = 229910 BitCount = 119 ID = 785
   0.723056 1  112             Rx   d 8 00 00 3A 34 00 00 00 00  Length = 235910 BitCount = 122 ID = 274
   0.724636 1  303             Rx   d 8 03 03 01 02 00 00 00 00  Length = 239911 BitCount = 124 ID = 771
   0.724874 1  302             Rx   d 8 18 05 05 00 10 33 25 00  Length = 229910 BitCount = 119 ID = 770
   0.725106 1  304             Rx   d 8 02 54 51 4C 30 30 31 47  Length = 223910 BitCount = 116 ID = 772
   0.726009 1  201             Rx   d 8 00 00 C8 00 00 00 07 CF  Length = 237911 BitCount = 123 ID = 513
   0.726255 1  202             Rx   d 8 09 01 00 00 00 00 00 0A  Length = 237926 BitCount = 123 ID = 514
   0.726491 1  203             Rx   d 8 82 21 4F C8 E3 F0 50 3C  Length = 227910 BitCount = 118 ID = 515
   0.729113 1  102             Rx   d 8 04 03 1C 00 00 00 00 23  Length = 233910 BitCount = 121 ID = 258
   0.729349 1  103             Rx   d 8 FE FF 2C 04 6E 00 00 9B  Length = 227925 BitCount = 118 ID = 259
   0.729594 1  104             Rx   d 8 D2 19 00 00 00 00 00 EB  Length = 235910 BitCount = 122 ID = 260
   0.729842 1  105             Rx   d 8 10 27 00 00 00 00 00 37  Length = 239926 BitCount = 124 ID = 261
   0.730132 1  18E00000x       Rx   d 8 00 03 E7 03 2A 00 24 0F  Length = 281911 BitCount = 145 ID = 417333248x
   0.730418 1  18E00100x       Rx   d 8 03 24 00 01 01 00 50 01  Length = 277926 BitCount = 143 ID = 417333504x
   0.733062 1  113             Rx   d 8 01 01 00 00 00 00 00 00  Length = 239910 BitCount = 124 ID = 275
   0.746723 1  102             Rx   d 8 04 03 1C 00 00 00 00 23  Length = 233910 BitCount = 121 ID = 258
   0.746961 1  103             Rx   d 8 FF FF 2C 04 6E 00 00 9C  Length = 229926 BitCount = 119 ID = 259
   0.747205 1  104             Rx   d 8 D2 19 00 00 00 00 00 EB  Length = 235910 BitCount = 122 ID = 260
   0.747453 1  105             Rx   d 8 10 27 00 00 00 00 00 37  Length = 239910 BitCount = 124 ID = 261
   0.747741 1  18E00000x       Rx   d 8 00 03 E7 03 2A 00 26 0F  Length = 279910 BitCount = 144 ID = 417333248x
   0.748028 1  18E00100x       Rx   d 8 03 24 00 01 01 00 50 01  Length = 277926 BitCount = 143 ID = 417333504x
   0.766765 1  102             Rx   d 8 04 03 1C 00 00 00 00 23  Length = 233926 BitCount = 121 ID = 258
   0.767003 1  103             Rx   d 8 FF FF 2C 04 6E 00 00 9C  Length = 229911 BitCount = 119 ID = 259
   0.767247 1  104             Rx   d 8 D2 19 00 00 00 00 00 EB  Length = 235926 BitCount = 122 ID = 260
   0.767495 1  105             Rx   d 8 10 27 00 00 00 00 00 37  Length = 239910 BitCount = 124 ID = 261
   0.767785 1  18E00000x       Rx   d 8 00 03 E7 03 2A 00 24 0F  Length = 281925 BitCount = 145 ID = 417333248x
   0.768072 1  18E00100x       Rx   d 8 03 24 00 01 01 00 50 01  Length = 277910 BitCount = 143 ID = 417333504x
   0.770047 1  315             Rx   d 8 05 05 03 03 02 00 03 03  Length = 231911 BitCount = 120 ID = 789
   0.786819 1  102             Rx   d 8 04 03 1C 00 00 00 00 23  Length = 233910 BitCount = 121 ID = 258
   0.787057 1  103             Rx   d 8 FF FF 2C 04 6E 00 00 9C  Length = 229910 BitCount = 119 ID = 259
   0.787301 1  104             Rx   d 8 D2 19 00 00 00 00 00 EB  Length = 235911 BitCount = 122 ID = 260
   0.787549 1  105             Rx   d 8 10 27 00 00 00 00 00 37  Length = 239910 BitCount = 124 ID = 261
   0.787837 1  18E00000x       Rx   d 8 00 03 E7 03 2A 00 26 0F  Length = 279910 BitCount = 144 ID = 417333248x
   0.788123 1  18E00100x       Rx   d 8 03 24 00 01 01 00 50 01  Length = 277910 BitCount = 143 ID = 417333504x
   0.806551 1  221             Rx   d 8 00 45 00 07 05 00 00 4E  Length = 231911 BitCount = 120 ID = 545
   0.806887 1  102             Rx   d 8 04 03 1C 00 00 00 00 23  Length = 233910 BitCount = 121 ID = 258
   0.807125 1  103             Rx   d 8 FF FF 2C 04 6E 00 00 9C  Length = 229926 BitCount = 119 ID = 259
   0.807369 1  104             Rx   d 8 D2 19 00 00 00 00 00 EB  Length = 235910 BitCount = 122 ID = 260
   0.807617 1  105             Rx   d 8 10 27 00 00 00 00 00 37  Length = 239926 BitCount = 124 ID = 261
   0.807907 1  18E00000x       Rx   d 8 00 03 E7 03 2A 00 24 0F  Length = 281910 BitCount = 145 ID = 417333248x
   0.808193 1  18E00100x       Rx   d 8 03 24 00 01 01 00 50 01  Length = 277925 BitCount = 143 ID = 417333504x
   0.814043 1  311             Rx   d 8 02 00 00 00 4D 00 CB 02  Length = 229926 BitCount = 119 ID = 785
   0.824051 1  112             Rx   d 8 00 00 3A 34 00 00 00 00  Length = 235926 BitCount = 122 ID = 274
   0.826237 1  204             Rx   d 8 E0 35 35 35 35 FF FF FF  Length = 229910 BitCount = 119 ID = 516
   0.826476 1  205             Rx   d 8 23 0F 12 0C 0F 05 00 00  Length = 229910 BitCount = 119 ID = 517
   0.826718 1  206             Rx   d 8 36 04 35 02 00 00 00 00  Length = 233910 BitCount = 121 ID = 518
   0.831788 1  102             Rx   d 8 04 03 1C 00 00 00 00 23  Length = 233911 BitCount = 121 ID = 258
   0.832026 1  103             Rx   d 8 FF FF 2C 04 6E 00 00 9C  Length = 229910 BitCount = 119 ID = 259
   0.832270 1  104             Rx   d 8 D2 19 00 00 00 00 00 EB  Length = 235910 BitCount = 122 ID = 260
   0.832519 1  105             Rx   d 8 10 27 00 00 00 00 00 37  Length = 239910 BitCount = 124 ID = 261
   0.832809 1  18E00000x       Rx   d 8 00 03 E7 03 2A 00 24 0F  Length = 281910 BitCount = 145 ID = 417333248x
   0.833095 1  18E00100x       Rx   d 8 03 24 00 01 01 00 50 01  Length = 277911 BitCount = 143 ID = 417333504x
   0.834059 1  113             Rx   d 8 01 01 00 00 00 00 00 00  Length = 239926 BitCount = 124 ID = 275
   0.846954 1  102             Rx   d 8 04 03 1C 00 00 00 00 23  Length = 233910 BitCount = 121 ID = 258
   0.847192 1  103             Rx   d 8 FF FF 2C 04 6E 00 00 9C  Length = 229911 BitCount = 119 ID = 259
   0.847436 1  104             Rx   d 8 D2 19 00 00 00 00 00 EB  Length = 235910 BitCount = 122 ID = 260
   0.847684 1  105             Rx   d 8 10 27 00 00 00 00 00 37  Length = 239910 BitCount = 124 ID = 261
   0.847974 1  18E00000x       Rx   d 8 00 03 E7 03 2A 00 24 0F  Length = 281911 BitCount = 145 ID = 417333248x
   0.848261 1  18E00100x       Rx   d 8 03 24 00 01 01 00 50 01  Length = 277910 BitCount = 143 ID = 417333504x
   0.862048 1  314             Rx   d 8 33 30 30 30 36 41 00 00  Length = 233910 BitCount = 121 ID = 788
   0.866994 1  102             Rx   d 8 04 03 1C 00 00 00 00 23  Length = 233910 BitCount = 121 ID = 258
   0.867233 1  103             Rx   d 8 FF FF 2C 04 6E 00 00 9C  Length = 229926 BitCount = 119 ID = 259
   0.867477 1  104             Rx   d 8 D2 19 00 00 00 00 00 EB  Length = 235911 BitCount = 122 ID = 260
   0.867725 1  105             Rx   d 8 10 27 00 00 00 00 00 37  Length = 239910 BitCount = 124 ID = 261
   0.868015 1  18E00000x       Rx   d 8 00 03 E7 03 2A 00 24 0F  Length = 281910 BitCount = 145 ID = 417333248x
   0.868301 1  18E00100x       Rx   d 8 03 24 00 01 01 00 50 01  Length = 277926 BitCount = 143 ID = 417333504x
   0.887056 1  102             Rx   d 8 04 03 1C 00 00 00 00 23  Length = 233910 BitCount = 121 ID = 258
   0.887295 1  103             Rx   d 8 FF FF 2C 04 6E 00 00 9C  Length = 229910 BitCount = 119 ID = 259
   0.887539 1  104             Rx   d 8 D2 19 00 00 00 00 00 EB  Length = 235926 BitCount = 122 ID = 260
   0.887787 1  105             Rx   d 8 10 27 00 00 00 00 00 37  Length = 239910 BitCount = 124 ID = 261
   0.888079 1  18E00000x       Rx   d 8 00 03 E7 03 1E 00 24 0F  Length = 283926 BitCount = 146 ID = 417333248x
   0.888365 1  18E00100x       Rx   d 8 03 24 00 01 01 00 50 01  Length = 277911 BitCount = 143 ID = 417333504x
   0.906361 1  221             Rx   d 8 00 45 00 07 05 00 00 4E  Length = 231911 BitCount = 120 ID = 545
   0.907101 1  102             Rx   d 8 04 03 1C 00 00 00 00 23  Length = 233910 BitCount = 121 ID = 258
   0.907339 1  103             Rx   d 8 FF FF 2C 04 6E 00 00 9C  Length = 229910 BitCount = 119 ID = 259
   0.907583 1  104             Rx   d 8 D2 19 00 00 00 00 00 EB  Length = 235910 BitCount = 122 ID = 260
   0.907831 1  105             Rx   d 8 10 27 00 00 00 00 00 37  Length = 239911 BitCount = 124 ID = 261
   0.908121 1  18E00000x       Rx   d 8 00 03 E7 03 2A 00 24 0F  Length = 281910 BitCount = 145 ID = 417333248x
   0.908407 1  18E00100x       Rx   d 8 03 24 00 01 01 00 50 01  Length = 277910 BitCount = 143 ID = 417333504x
   0.915035 1  311             Rx   d 8 02 00 00 00 4D 00 CB 02  Length = 229910 BitCount = 119 ID = 785
   0.925063 1  112             Rx   d 8 00 00 3A 34 00 00 00 00  Length = 235910 BitCount = 122 ID = 274
   0.925301 1  302             Rx   d 8 18 05 05 00 10 33 25 00  Length = 229910 BitCount = 119 ID = 770
   0.925549 1  303             Rx   d 8 03 03 01 02 00 00 00 00  Length = 239910 BitCount = 124 ID = 771
   0.925785 1  304             Rx   d 8 03 44 35 4E 30 30 30 30  Length = 227910 BitCount = 118 ID = 772
   0.926483 1  201             Rx   d 8 00 00 C8 00 00 00 07 CF  Length = 237910 BitCount = 123 ID = 513
   0.926730 1  202             Rx   d 8 09 01 00 00 00 00 00 0A  Length = 237911 BitCount = 123 ID = 514
   0.926966 1  203             Rx   d 8 83 11 0F C4 13 F1 88 3C  Length = 227910 BitCount = 118 ID = 515
   0.929582 1  102             Rx   d 8 04 03 1C 00 00 00 00 23  Length = 233910 BitCount = 121 ID = 258
   0.929820 1  103             Rx   d 8 FF FF 2C 04 6E 00 00 9C  Length = 229910 BitCount = 119 ID = 259
   0.930064 1  104             Rx   d 8 D2 19 00 00 00 00 00 EB  Length = 235911 BitCount = 122 ID = 260
   0.930312 1  105             Rx   d 8 10 27 00 00 00 00 00 37  Length = 239910 BitCount = 124 ID = 261
   0.930601 1  18E00000x       Rx   d 8 00 03 E7 03 2A 00 22 0F  Length = 279910 BitCount = 144 ID = 417333248x
   0.930887 1  18E00100x       Rx   d 8 03 24 00 01 01 00 50 01  Length = 277911 BitCount = 143 ID = 417333504x
   0.935067 1  113             Rx   d 8 01 01 00 00 00 00 00 00  Length = 239910 BitCount = 124 ID = 275
   0.947163 1  102             Rx   d 8 04 03 1C 00 00 00 00 23  Length = 233926 BitCount = 121 ID = 258
   0.947400 1  103             Rx   d 8 FE FF 2C 04 6E 00 00 9B  Length = 227910 BitCount = 118 ID = 259
   0.947644 1  104             Rx   d 8 D2 19 00 00 00 00 00 EB  Length = 235925 BitCount = 122 ID = 260
   0.947892 1  105             Rx   d 8 10 27 00 00 00 00 00 37  Length = 239910 BitCount = 124 ID = 261
   0.948182 1  18E00000x       Rx   d 8 00 03 E7 03 2A 00 24 0F  Length = 281926 BitCount = 145 ID = 417333248x
   0.948468 1  18E00100x       Rx   d 8 03 24 00 01 01 00 50 01  Length = 277910 BitCount = 143 ID = 417333504x
   0.967217 1  102             Rx   d 8 04 03 1C 00 00 00 00 23  Length = 233911 BitCount = 121 ID = 258
   0.967454 1  103             Rx   d 8 FE FF 2C 04 6E 00 00 9B  Length = 227910 BitCount = 118 ID = 259
   0.967698 1  104             Rx   d 8 D2 19 00 00 00 00 00 EB  Length = 235910 BitCount = 122 ID = 260
   0.967946 1  105             Rx   d 8 10 27 00 00 00 00 00 37  Length = 239910 BitCount = 124 ID = 261
   0.968230 1  18E00000x       Rx   d 8 00 03 E7 03 2A 00 29 0F  Length = 275910 BitCount = 142 ID = 417333248x
   0.968516 1  18E00100x       Rx   d 8 03 24 00 01 01 00 50 01  Length = 277911 BitCount = 143 ID = 417333504x
   0.971046 1  315             Rx   d 8 05 05 03 03 02 00 03 03  Length = 231910 BitCount = 120 ID = 789
   0.983042 1  317             Rx   d 8 50 35 25 32 33 00 00 00  Length = 227910 BitCount = 118 ID = 791
   0.987280 1  102             Rx   d 8 04 03 1C 00 00 00 00 23  Length = 233910 BitCount = 121 ID = 258
   0.987516 1  103             Rx   d 8 FE FF 2C 04 6E 00 00 9B  Length = 227926 BitCount = 118 ID = 259
   0.987760 1  104             Rx   d 8 D2 19 00 00 00 00 00 EB  Length = 235910 BitCount = 122 ID = 260
   0.988009 1  105             Rx   d 8 10 27 00 00 00 00 00 37  Length = 239925 BitCount = 124 ID = 261
   0.988299 1  18E00000x       Rx   d 8 00 03 E7 03 2A 00 24 0F  Length = 281910 BitCount = 145 ID = 417333248x
   0.988585 1  18E00100x       Rx   d 8 03 24 00 01 01 00 50 01  Length = 277926 BitCount = 143 ID = 417333504x
   1.006354 1  221             Rx   d 8 00 45 00 07 05 00 00 4E  Length = 231925 BitCount = 120 ID = 545
   1.007328 1  102             Rx   d 8 04 03 1C 00 00 00 00 23  Length = 233910 BitCount = 121 ID = 258
   1.007565 1  103             Rx   d 8 FE FF 2C 04 6E 00 00 9B  Length = 227911 BitCount = 118 ID = 259
   1.007809 1  104             Rx   d 8 D2 19 00 00 00 00 00 EB  Length = 235926 BitCount = 122 ID = 260
   1.008057 1  105             Rx   d 8 10 27 00 00 00 00 00 37  Length = 239910 BitCount = 124 ID = 261
   1.008347 1  18E00000x       Rx   d 8 00 03 E7 03 2A 00 24 0F  Length = 281925 BitCount = 145 ID = 417333248x
   1.008633 1  18E00100x       Rx   d 8 03 24 00 01 01 00 50 01  Length = 277910 BitCount = 143 ID = 417333504x
   1.016037 1  311             Rx   d 8 02 00 00 00 4D 00 CB 02  Length = 229910 BitCount = 119 ID = 785
   1.024302 1  305             Rx   d 8 00 33 01 22 08 02 02 00  Length = 233910 BitCount = 121 ID = 773
   1.024540 1  306             Rx   d 8 00 33 01 22 08 03 01 01  Length = 229910 BitCount = 119 ID = 774
   1.024830 1  18E0000Bx       Rx   d 8 00 00 00 00 00 00 01 00  Length = 281910 BitCount = 145 ID = 417333259x
   1.026044 1  112             Rx   d 8 00 00 3A 34 00 00 00 00  Length = 235910 BitCount = 122 ID = 274
   1.026708 1  204             Rx   d 8 E1 FF 37 36 37 3A 41 FF  Length = 225910 BitCount = 117 ID = 516
   1.026946 1  205             Rx   d 8 23 0F 12 0C 0F 05 00 00  Length = 229926 BitCount = 119 ID = 517
   1.027190 1  206             Rx   d 8 35 04 35 02 00 00 00 00  Length = 235911 BitCount = 122 ID = 518
   1.032433 1  102             Rx   d 8 04 03 1C 00 00 00 00 23  Length = 233910 BitCount = 121 ID = 258
   1.032669 1  103             Rx   d 8 FE FF 2C 04 6E 00 00 9B  Length = 227910 BitCount = 118 ID = 259
   1.032913 1  104             Rx   d 8 D2 19 00 00 00 00 00 EB  Length = 235910 BitCount = 122 ID = 260
   1.033161 1  105             Rx   d 8 10 27 00 00 00 00 00 37  Length = 239911 BitCount = 124 ID = 261
   1.033447 1  18E00000x       Rx   d 8 00 03 E7 03 1B 00 24 0F  Length = 277910 BitCount = 143 ID = 417333248x
   1.033734 1  18E00100x       Rx   d 8 03 24 00 01 01 00 50 01  Length = 277910 BitCount = 143 ID = 417333504x
   1.036056 1  113             Rx   d 8 01 01 00 00 00 00 00 00  Length = 239910 BitCount = 124 ID = 275
   1.047396 1  102             Rx   d 8 04 03 1C 00 00 00 00 23  Length = 233911 BitCount = 121 ID = 258
   1.047633 1  103             Rx   d 8 FE FF 2C 04 6E 00 00 9B  Length = 227926 BitCount = 118 ID = 259
   1.047877 1  104             Rx   d 8 D2 19 00 00 00 00 00 EB  Length = 235910 BitCount = 122 ID = 260
   1.048125 1  105             Rx   d 8 10 27 00 00 00 00 00 37  Length = 239911 BitCount = 124 ID = 261
   1.048164 1  Statistic: D 319 R 0 XD 108 XR 0 E 0 O 0 B 10.35%
   1.048164 CAN 1 Status:chip status error active
   1.048413 1  18E00000x       Rx   d 8 00 03 E7 03 2A 00 22 0F  Length = 279910 BitCount = 144 ID = 417333248x
   1.048699 1  18E00100x       Rx   d 8 03 24 00 01 01 00 50 01  Length = 277925 BitCount = 143 ID = 417333504x
   1.067448 1  102             Rx   d 8 04 03 1C 00 00 00 00 23  Length = 233911 BitCount = 121 ID = 258
   1.067685 1  103             Rx   d 8 FE FF 2C 04 6E 00 00 9B  Length = 227910 BitCount = 118 ID = 259
   1.067929 1  104             Rx   d 8 D2 19 00 00 00 00 00 EB  Length = 235926 BitCount = 122 ID = 260
   1.068177 1  105             Rx   d 8 10 27 00 00 00 00 00 37  Length = 239911 BitCount = 124 ID = 261
   1.068467 1  18E00000x       Rx   d 8 00 03 E7 03 2A 00 24 0F  Length = 281926 BitCount = 145 ID = 417333248x
   1.068753 1  18E00100x       Rx   d 8 03 24 00 01 01 00 50 01  Length = 277910 BitCount = 143 ID = 417333504x
   1.087496 1  102             Rx   d 8 04 03 1C 00 00 00 00 23  Length = 233910 BitCount = 121 ID = 258
   1.087733 1  103             Rx   d 8 FE FF 2C 04 6E 00 00 9B  Length = 227911 BitCount = 118 ID = 259
   1.087977 1  104             Rx   d 8 D2 19 00 00 00 00 00 EB  Length = 235910 BitCount = 122 ID = 260
   1.088225 1  105             Rx   d 8 10 27 00 00 00 00 00 37  Length = 239910 BitCount = 124 ID = 261
   1.088515 1  18E00000x       Rx   d 8 00 03 E7 03 16 00 24 0F  Length = 281911 BitCount = 145 ID = 417333248x
   1.088801 1  18E00100x       Rx   d 8 03 24 00 01 01 00 50 01  Length = 277910 BitCount = 143 ID = 417333504x
   1.106388 1  221             Rx   d 8 00 45 00 07 05 00 00 4E  Length = 231926 BitCount = 120 ID = 545
   1.107539 1  102             Rx   d 8 04 03 1C 00 00 00 00 23  Length = 233910 BitCount = 121 ID = 258
   1.107775 1  103             Rx   d 8 FE FF 2C 04 6E 00 00 9B  Length = 227926 BitCount = 118 ID = 259
   1.108019 1  104             Rx   d 8 D2 19 00 00 00 00 00 EB  Length = 235911 BitCount = 122 ID = 260
   1.108267 1  105             Rx   d 8 10 27 00 00 00 00 00 37  Length = 239910 BitCount = 124 ID = 261
   1.108555 1  18E00000x       Rx   d 8 00 03 E7 03 2A 00 22 0F  Length = 279910 BitCount = 144 ID = 417333248x
   1.108841 1  18E00100x       Rx   d 8 03 24 00 01 01 00 50 01  Length = 277926 BitCount = 143 ID = 417333504x
   1.117033 1  311             Rx   d 8 02 00 00 00 4D 00 CB 02  Length = 229910 BitCount = 119 ID = 785
   1.125526 1  303             Rx   d 8 03 03 01 02 00 00 00 00  Length = 239925 BitCount = 124 ID = 771
   1.125764 1  302             Rx   d 8 18 05 05 00 10 33 25 00  Length = 229910 BitCount = 119 ID = 770
   1.126008 1  304             Rx   d 8 04 30 34 33 00 00 00 00  Length = 235926 BitCount = 122 ID = 772
   1.126926 1  201             Rx   d 8 00 00 C8 00 00 00 07 CF  Length = 237911 BitCount = 123 ID = 513
   1.127170 1  112             Rx   d 8 00 00 3A 34 00 00 00 00  Length = 235910 BitCount = 122 ID = 274
   1.127416 1  202             Rx   d 8 09 01 00 00 00 00 00 0A  Length = 237910 BitCount = 123 ID = 514
   1.127649 1  203             Rx   d 8 84 22 CF C8 23 F2 84 3C  Length = 223910 BitCount = 116 ID = 515
   1.129991 1  102             Rx   d 8 04 03 1C 00 00 00 00 23  Length = 233910 BitCount = 121 ID = 258
   1.130227 1  103             Rx   d 8 FE FF 2C 04 6E 00 00 9B  Length = 227911 BitCount = 118 ID = 259
   1.130471 1  104             Rx   d 8 D2 19 00 00 00 00 00 EB  Length = 235910 BitCount = 122 ID = 260
   1.130719 1  105             Rx   d 8 10 27 00 00 00 00 00 37  Length = 239910 BitCount = 124 ID = 261
   1.131007 1  18E00000x       Rx   d 8 00 03 E7 03 2A 00 22 0F  Length = 279911 BitCount = 144 ID = 417333248x
   1.131294 1  18E00100x       Rx   d 8 03 24 00 01 01 00 50 01  Length = 277910 BitCount = 143 ID = 417333504x
   1.137047 1  113             Rx   d 8 01 01 00 00 00 00 00 00  Length = 239910 BitCount = 124 ID = 275
   1.147622 1  102             Rx   d 8 04 03 1C 00 00 00 00 23  Length = 233910 BitCount = 121 ID = 258
   1.147860 1  103             Rx   d 8 FF FF 2C 04 6E 00 00 9C  Length = 229910 BitCount = 119 ID = 259
   1.148104 1  104             Rx   d 8 D2 19 00 00 00 00 00 EB  Length = 235910 BitCount = 122 ID = 260
   1.148353 1  105             Rx   d 8 10 27 00 00 00 00 00 37  Length = 239911 BitCount = 124 ID = 261
   1.148643 1  18E00000x       Rx   d 8 00 03 E7 03 2A 00 24 0F  Length = 281910 BitCount = 145 ID = 417333248x
   1.148929 1  18E00100x       Rx   d 8 03 24 00 01 01 00 50 01  Length = 277910 BitCount = 143 ID = 417333504x
   1.167682 1  102             Rx   d 8 04 03 1C 00 00 00 00 23  Length = 233910 BitCount = 121 ID = 258
   1.167920 1  103             Rx   d 8 FF FF 2C 04 6E 00 00 9C  Length = 229925 BitCount = 119 ID = 259
   1.168164 1  104             Rx   d 8 D2 19 00 00 00 00 00 EB  Length = 235910 BitCount = 122 ID = 260
   1.168413 1  105             Rx   d 8 10 27 00 00 00 00 00 37  Length = 239926 BitCount = 124 ID = 261
   1.168703 1  18E00000x       Rx   d 8 00 03 E7 03 2A 00 24 0F  Length = 281911 BitCount = 145 ID = 417333248x
   1.168989 1  18E00100x       Rx   d 8 03 24 00 01 01 00 50 01  Length = 277926 BitCount = 143 ID = 417333504x
   1.172033 1  315             Rx   d 8 05 05 03 03 02 00 03 03  Length = 231910 BitCount = 120 ID = 789
   1.183042 1  318             Rx   d 8 02 00 00 00 00 00 00 00  Length = 239910 BitCount = 124 ID = 792
   1.187701 1  102             Rx   d 8 04 03 1C 00 00 00 00 23  Length = 233926 BitCount = 121 ID = 258
   1.187939 1  103             Rx   d 8 FF FF 2C 04 6E 00 00 9C  Length = 229910 BitCount = 119 ID = 259
   1.188183 1  104             Rx   d 8 D2 19 00 00 00 00 00 EB  Length = 235925 BitCount = 122 ID = 260
   1.188431 1  105             Rx   d 8 10 27 00 00 00 00 00 37  Length = 239910 BitCount = 124 ID = 261
   1.188719 1  18E00000x       Rx   d 8 00 03 E7 03 2A 00 26 0F  Length = 279926 BitCount = 144 ID = 417333248x
   1.189005 1  18E00100x       Rx   d 8 03 24 00 01 01 00 50 01  Length = 277910 BitCount = 143 ID = 417333504x
   1.207757 1  102             Rx   d 8 04 03 1C 00 00 00 00 23  Length = 233911 BitCount = 121 ID = 258
   1.207995 1  103             Rx   d 8 FF FF 2C 04 6E 00 00 9C  Length = 229910 BitCount = 119 ID = 259
   1.208239 1  104             Rx   d 8 D2 19 00 00 00 00 00 EB  Length = 235910 BitCount = 122 ID = 260
   1.208487 1  105             Rx   d 8 10 27 00 00 00 00 00 37  Length = 239910 BitCount = 124 ID = 261
   1.208777 1  18E00000x       Rx   d 8 00 03 E7 03 2A 00 24 0F  Length = 281910 BitCount = 145 ID = 417333248x
   1.209063 1  18E00100x       Rx   d 8 03 24 00 01 01 00 50 01  Length = 277911 BitCount = 143 ID = 417333504x
   1.213547 1  221             Rx   d 8 00 45 00 07 05 00 00 4E  Length = 231910 BitCount = 120 ID = 545
   1.218021 1  311             Rx   d 8 02 00 00 00 4D 00 CB 02  Length = 229911 BitCount = 119 ID = 785
   1.227158 1  204             Rx   d 8 22 FF FF FF FF FF FF FF  Length = 241911 BitCount = 125 ID = 516
   1.227396 1  205             Rx   d 8 23 0F 12 0C 0F 05 00 00  Length = 229910 BitCount = 119 ID = 517
   1.227638 1  206             Rx   d 8 36 04 35 02 00 00 00 00  Length = 233910 BitCount = 121 ID = 518
   1.228056 1  112             Rx   d 8 00 00 3A 34 00 00 00 00  Length = 235911 BitCount = 122 ID = 274
   1.232688 1  102             Rx   d 8 04 03 1C 00 00 00 00 23  Length = 233910 BitCount = 121 ID = 258
   1.232927 1  103             Rx   d 8 FF FF 2C 04 6E 00 00 9C  Length = 229910 BitCount = 119 ID = 259
   1.233171 1  104             Rx   d 8 D2 19 00 00 00 00 00 EB  Length = 235926 BitCount = 122 ID = 260
   1.233419 1  105             Rx   d 8 10 27 00 00 00 00 00 37  Length = 239910 BitCount = 124 ID = 261
   1.233709 1  18E00000x       Rx   d 8 00 03 E7 03 2A 00 24 0F  Length = 281926 BitCount = 145 ID = 417333248x
   1.233995 1  18E00100x       Rx   d 8 03 24 00 01 01 00 50 01  Length = 277911 BitCount = 143 ID = 417333504x
   1.238057 1  113             Rx   d 8 01 01 00 00 00 00 00 00  Length = 239911 BitCount = 124 ID = 275
   1.247856 1  102             Rx   d 8 04 03 1C 00 00 00 00 23  Length = 233910 BitCount = 121 ID = 258
   1.248094 1  103             Rx   d 8 FF FF 2C 04 6E 00 00 9C  Length = 229911 BitCount = 119 ID = 259
   1.248338 1  104             Rx   d 8 D2 19 00 00 00 00 00 EB  Length = 235926 BitCount = 122 ID = 260
   1.248586 1  105             Rx   d 8 10 27 00 00 00 00 00 37  Length = 239910 BitCount = 124 ID = 261
   1.248876 1  18E00000x       Rx   d 8 00 03 E7 03 2A 00 24 0F  Length = 281925 BitCount = 145 ID = 417333248x
   1.249163 1  18E00100x       Rx   d 8 03 24 00 01 01 00 50 01  Length = 277910 BitCount = 143 ID = 417333504x
   1.267890 1  102             Rx   d 8 04 03 1C 00 00 00 00 23  Length = 233910 BitCount = 121 ID = 258
   1.268128 1  103             Rx   d 8 FF FF 2C 04 6E 00 00 9C  Length = 229910 BitCount = 119 ID = 259
   1.268372 1  104             Rx   d 8 D2 19 00 00 00 00 00 EB  Length = 235911 BitCount = 122 ID = 260
   1.268620 1  105             Rx   d 8 10 27 00 00 00 00 00 37  Length = 239910 BitCount = 124 ID = 261
   1.268910 1  18E00000x       Rx   d 8 00 03 E7 03 2A 00 24 0F  Length = 281910 BitCount = 145 ID = 417333248x
   1.269196 1  18E00100x       Rx   d 8 03 24 00 01 01 00 50 01  Length = 277910 BitCount = 143 ID = 417333504x
   1.287932 1  102             Rx   d 8 04 03 1C 00 00 00 00 23  Length = 233911 BitCount = 121 ID = 258
   1.288170 1  103             Rx   d 8 FF FF 2C 04 6E 00 00 9C  Length = 229926 BitCount = 119 ID = 259
   1.288414 1  104             Rx   d 8 D2 19 00 00 00 00 00 EB  Length = 235910 BitCount = 122 ID = 260
   1.288662 1  105             Rx   d 8 10 27 00 00 00 00 00 37  Length = 239911 BitCount = 124 ID = 261
   1.288950 1  18E00000x       Rx   d 8 00 03 E7 03 23 00 24 0F  Length = 279910 BitCount = 144 ID = 417333248x
   1.289236 1  18E00100x       Rx   d 8 03 24 00 01 01 00 50 01  Length = 277925 BitCount = 143 ID = 417333504x
   1.306540 1  221             Rx   d 8 00 45 00 07 05 00 00 4E  Length = 231910 BitCount = 120 ID = 545
   1.307988 1  102             Rx   d 8 04 03 1C 00 00 00 00 23  Length = 233911 BitCount = 121 ID = 258
   1.308226 1  103             Rx   d 8 FF FF 2C 04 6E 00 00 9C  Length = 229910 BitCount = 119 ID = 259
   1.308470 1  104             Rx   d 8 D2 19 00 00 00 00 00 EB  Length = 235926 BitCount = 122 ID = 260
   1.308719 1  105             Rx   d 8 10 27 00 00 00 00 00 37  Length = 239911 BitCount = 124 ID = 261
   1.309009 1  18E00000x       Rx   d 8 00 03 E7 03 2A 00 24 0F  Length = 281926 BitCount = 145 ID = 417333248x
   1.309295 1  18E00100x       Rx   d 8 03 24 00 01 01 00 50 01  Length = 277910 BitCount = 143 ID = 417333504x
   1.319039 1  311             Rx   d 8 02 00 00 00 4D 00 CB 02  Length = 229925 BitCount = 119 ID = 785
   1.325971 1  303             Rx   d 8 03 03 01 02 00 00 00 00  Length = 239910 BitCount = 124 ID = 771
   1.326209 1  302             Rx   d 8 18 05 05 00 10 33 25 00  Length = 229911 BitCount = 119 ID = 770
   1.326459 1  304             Rx   d 8 05 00 00 00 00 00 00 00  Length = 241910 BitCount = 125 ID = 772
   1.327372 1  201             Rx   d 8 00 00 C8 00 00 00 07 CF  Length = 237910 BitCount = 123 ID = 513
   1.327618 1  202             Rx   d 8 09 01 00 00 00 00 00 0A  Length = 237925 BitCount = 123 ID = 514
   1.327856 1  203             Rx   d 8 80 0E CF C3 03 F1 38 3C  Length = 229910 BitCount = 119 ID = 515
   1.329048 1  112             Rx   d 8 00 00 3A 34 00 00 00 00  Length = 235910 BitCount = 122 ID = 274
   1.330430 1  102             Rx   d 8 04 03 1C 00 00 00 00 23  Length = 233910 BitCount = 121 ID = 258
   1.330668 1  103             Rx   d 8 FF FF 2C 04 6E 00 00 9C  Length = 229926 BitCount = 119 ID = 259
   1.330912 1  104             Rx   d 8 D2 19 00 00 00 00 00 EB  Length = 235910 BitCount = 122 ID = 260
   1.331160 1  105             Rx   d 8 10 27 00 00 00 00 00 37  Length = 239926 BitCount = 124 ID = 261
   1.331451 1  18E00000x       Rx   d 8 00 03 E7 03 2A 00 24 0F  Length = 281910 BitCount = 145 ID = 417333248x
   1.331737 1  18E00100x       Rx   d 8 03 24 00 01 01 00 50 01  Length = 277925 BitCount = 143 ID = 417333504x
   1.339043 1  113             Rx   d 8 01 01 00 00 00 00 00 00  Length = 239910 BitCount = 124 ID = 275
   1.348057 1  102             Rx   d 8 04 03 1C 00 00 00 00 23  Length = 233910 BitCount = 121 ID = 258
   1.348293 1  103             Rx   d 8 FE FF 2C 04 6E 00 00 9B  Length = 227910 BitCount = 118 ID = 259
   1.348538 1  104             Rx   d 8 D2 19 00 00 00 00 00 EB  Length = 235911 BitCount = 122 ID = 260
   1.348786 1  105             Rx   d 8 10 27 00 00 00 00 00 37  Length = 239910 BitCount = 124 ID = 261
   1.349074 1  18E00000x       Rx   d 8 00 03 E7 03 2A 00 22 0F  Length = 279910 BitCount = 144 ID = 417333248x
   1.349360 1  18E00100x       Rx   d 8 03 24 00 01 01 00 50 01  Length = 277911 BitCount = 143 ID = 417333504x
   1.368119 1  102             Rx   d 8 04 03 1C 00 00 00 00 23  Length = 233910 BitCount = 121 ID = 258
   1.368355 1  103             Rx   d 8 FE FF 2C 04 6E 00 00 9B  Length = 227910 BitCount = 118 ID = 259
   1.368600 1  104             Rx   d 8 D2 19 00 00 00 00 00 EB  Length = 235926 BitCount = 122 ID = 260
   1.368848 1  105             Rx   d 8 10 27 00 00 00 00 00 37  Length = 239910 BitCount = 124 ID = 261
   1.369134 1  18E00000x       Rx   d 8 00 03 E7 03 2A 00 2D 0F  Length = 277926 BitCount = 143 ID = 417333248x
   1.369420 1  18E00100x       Rx   d 8 03 24 00 01 01 00 50 01  Length = 277911 BitCount = 143 ID = 417333504x
   1.373028 1  315             Rx   d 8 05 05 03 03 02 00 03 03  Length = 231926 BitCount = 120 ID = 789
   1.388171 1  102             Rx   d 8 04 03 1C 00 00 00 00 23  Length = 233910 BitCount = 121 ID = 258
   1.388407 1  103             Rx   d 8 FE FF 2C 04 6E 00 00 9B  Length = 227910 BitCount = 118 ID = 259
   1.388651 1  104             Rx   d 8 D2 19 00 00 00 00 00 EB  Length = 235910 BitCount = 122 ID = 260
   1.388899 1  105             Rx   d 8 10 27 00 00 00 00 00 37  Length = 239911 BitCount = 124 ID = 261
   1.389190 1  18E00000x       Rx   d 8 00 03 E7 03 2A 00 24 0F  Length = 281910 BitCount = 145 ID = 417333248x
   1.389476 1  18E00100x       Rx   d 8 03 24 00 01 01 00 50 01  Length = 277910 BitCount = 143 ID = 417333504x
   1.406357 1  221             Rx   d 8 00 45 00 07 05 00 00 4E  Length = 231910 BitCount = 120 ID = 545
   1.408203 1  102             Rx   d 8 04 03 1C 00 00 00 00 23  Length = 233910 BitCount = 121 ID = 258
   1.408439 1  103             Rx   d 8 FE FF 2C 04 6E 00 00 9B  Length = 227925 BitCount = 118 ID = 259
   1.408684 1  104             Rx   d 8 D2 19 00 00 00 00 00 EB  Length = 235910 BitCount = 122 ID = 260
   1.408932 1  105             Rx   d 8 10 27 00 00 00 00 00 37  Length = 239910 BitCount = 124 ID = 261
   1.409222 1  18E00000x       Rx   d 8 00 03 E7 03 2A 00 24 0F  Length = 281911 BitCount = 145 ID = 417333248x
   1.409508 1  18E00100x       Rx   d 8 03 24 00 01 01 00 50 01  Length = 277926 BitCount = 143 ID = 417333504x
   1.420056 1  311             Rx   d 8 02 00 00 00 4D 00 31 03  Length = 233911 BitCount = 121 ID = 785
   1.427570 1  204             Rx   d 8 E0 35 35 35 36 FF FF FF  Length = 229910 BitCount = 119 ID = 516
   1.427808 1  205             Rx   d 8 23 0F 12 0C 0F 05 00 00  Length = 229910 BitCount = 119 ID = 517
   1.428053 1  206             Rx   d 8 35 04 35 02 00 00 00 00  Length = 235911 BitCount = 122 ID = 518
   1.430033 1  112             Rx   d 8 00 00 3A 34 00 00 00 00  Length = 235911 BitCount = 122 ID = 274
   1.433137 1  102             Rx   d 8 04 03 1C 00 00 00 00 23  Length = 233910 BitCount = 121 ID = 258
   1.433375 1  103             Rx   d 8 FE FF 2C 04 6E 00 00 9B  Length = 227911 BitCount = 118 ID = 259
   1.433619 1  104             Rx   d 8 D2 19 00 00 00 00 00 EB  Length = 235910 BitCount = 122 ID = 260
   1.433867 1  105             Rx   d 8 10 27 00 00 00 00 00 37  Length = 239910 BitCount = 124 ID = 261
   1.434157 1  18E00000x       Rx   d 8 00 03 E7 03 2A 00 24 0F  Length = 281911 BitCount = 145 ID = 417333248x
   1.434444 1  18E00100x       Rx   d 8 03 24 00 01 01 00 50 01  Length = 277910 BitCount = 143 ID = 417333504x
   1.440055 1  113             Rx   d 8 01 01 00 00 00 00 00 00  Length = 239911 BitCount = 124 ID = 275
   1.448290 1  102             Rx   d 8 04 03 1C 00 00 00 00 23  Length = 233911 BitCount = 121 ID = 258
   1.448526 1  103             Rx   d 8 FE FF 2C 04 6E 00 00 9B  Length = 227910 BitCount = 118 ID = 259
   1.448770 1  104             Rx   d 8 D2 19 00 00 00 00 00 EB  Length = 235910 BitCount = 122 ID = 260
   1.449018 1  105             Rx   d 8 10 27 00 00 00 00 00 37  Length = 239910 BitCount = 124 ID = 261
   1.449309 1  18E00000x       Rx   d 8 00 03 E7 03 2A 00 24 0F  Length = 281910 BitCount = 145 ID = 417333248x
   1.449595 1  18E00100x       Rx   d 8 03 24 00 01 01 00 50 01  Length = 277911 BitCount = 143 ID = 417333504x
   1.468348 1  102             Rx   d 8 04 03 1C 00 00 00 00 23  Length = 233910 BitCount = 121 ID = 258
   1.468584 1  103             Rx   d 8 FE FF 2C 04 6E 00 00 9B  Length = 227926 BitCount = 118 ID = 259
   1.468828 1  104             Rx   d 8 D2 19 00 00 00 00 00 EB  Length = 235910 BitCount = 122 ID = 260
   1.469076 1  105             Rx   d 8 10 27 00 00 00 00 00 37  Length = 239925 BitCount = 124 ID = 261
   1.469365 1  18E00000x       Rx   d 8 00 03 E7 03 2A 00 22 0F  Length = 279910 BitCount = 144 ID = 417333248x
   1.469651 1  18E00100x       Rx   d 8 03 24 00 01 01 00 50 01  Length = 277926 BitCount = 143 ID = 417333504x
   1.484060 1  317             Rx   d 8 50 35 25 32 33 00 00 00  Length = 227910 BitCount = 118 ID = 791
   1.488373 1  102             Rx   d 8 04 03 1C 00 00 00 00 23  Length = 233926 BitCount = 121 ID = 258
   1.488609 1  103             Rx   d 8 FE FF 2C 04 6E 00 00 9B  Length = 227911 BitCount = 118 ID = 259
   1.488853 1  104             Rx   d 8 D2 19 00 00 00 00 00 EB  Length = 235926 BitCount = 122 ID = 260
   1.489101 1  105             Rx   d 8 10 27 00 00 00 00 00 37  Length = 239910 BitCount = 124 ID = 261
   1.489387 1  18E00000x       Rx   d 8 00 03 E7 03 1E 00 20 0F  Length = 277925 BitCount = 143 ID = 417333248x
   1.489673 1  18E00100x       Rx   d 8 03 24 00 01 01 00 50 01  Length = 277910 BitCount = 143 ID = 417333504x
   1.506351 1  221             Rx   d 8 00 45 00 07 05 00 00 4E  Length = 231910 BitCount = 120 ID = 545
   1.508417 1  102             Rx   d 8 04 03 1C 00 00 00 00 23  Length = 233910 BitCount = 121 ID = 258
   1.508653 1  103             Rx   d 8 FE FF 2C 04 6E 00 00 9B  Length = 227910 BitCount = 118 ID = 259
   1.508897 1  104             Rx   d 8 D2 19 00 00 00 00 00 EB  Length = 235911 BitCount = 122 ID = 260
   1.509145 1  105             Rx   d 8 10 27 00 00 00 00 00 37  Length = 239910 BitCount = 124 ID = 261
   1.509434 1  18E00000x       Rx   d 8 00 03 E7 03 2A 00 26 0F  Length = 279910 BitCount = 144 ID = 417333248x
   1.509720 1  18E00100x       Rx   d 8 03 24 00 01 01 00 50 01  Length = 277910 BitCount = 143 ID = 417333504x
   1.521051 1  311             Rx   d 8 02 00 00 00 4D 00 DB 03  Length = 229911 BitCount = 119 ID = 785
   1.524442 1  18E00001x       Rx   d 8 77 00 2C 04 F3 01 2C 04  Length = 271911 BitCount = 140 ID = 417333249x
   1.525426 1  305             Rx   d 8 00 33 01 22 08 02 02 00  Length = 233910 BitCount = 121 ID = 773
   1.525664 1  306             Rx   d 8 00 33 01 22 08 03 01 01  Length = 229910 BitCount = 119 ID = 774
   1.525954 1  18E0000Bx       Rx   d 8 00 00 00 00 00 00 01 00  Length = 281910 BitCount = 145 ID = 417333259x
   1.526440 1  303             Rx   d 8 03 03 01 02 00 00 00 00  Length = 239911 BitCount = 124 ID = 771
   1.526679 1  302             Rx   d 8 18 05 05 00 10 33 25 00  Length = 229910 BitCount = 119 ID = 770
   1.526913 1  304             Rx   d 8 01 30 33 4E 4D 45 30 38  Length = 225911 BitCount = 117 ID = 772
   1.527829 1  201             Rx   d 8 00 00 C8 00 00 00 07 CF  Length = 237910 BitCount = 123 ID = 513
   1.528075 1  202             Rx   d 8 09 01 00 00 00 00 00 0A  Length = 237910 BitCount = 123 ID = 514
   1.528315 1  203             Rx   d 8 81 0C 0F C8 13 F2 7C 3C  Length = 231911 BitCount = 120 ID = 515
   1.530227 1  102             Rx   d 8 04 03 1C 00 00 00 00 23  Length = 233910 BitCount = 121 ID = 258
   1.530464 1  103             Rx   d 8 FE FF 2C 04 6E 00 00 9B  Length = 227911 BitCount = 118 ID = 259
   1.530708 1  104             Rx   d 8 D2 19 00 00 00 00 00 EB  Length = 235910 BitCount = 122 ID = 260
   1.530956 1  105             Rx   d 8 10 27 00 00 00 00 00 37  Length = 239910 BitCount = 124 ID = 261
   1.531200 1  112             Rx   d 8 00 00 3A 34 00 00 00 00  Length = 235911 BitCount = 122 ID = 274
   1.531486 1  18E00000x       Rx   d 8 00 03 E7 03 2A 00 2B 0F  Length = 277910 BitCount = 143 ID = 417333248x
   1.531772 1  18E00100x       Rx   d 8 03 24 00 01 01 00 50 01  Length = 277910 BitCount = 143 ID = 417333504x
   1.541062 1  113             Rx   d 8 01 01 00 00 00 00 00 00  Length = 239911 BitCount = 124 ID = 275
   1.548531 1  102             Rx   d 8 04 03 1C 00 00 00 00 23  Length = 233926 BitCount = 121 ID = 258
   1.548767 1  103             Rx   d 8 FE FF 2C 04 6E 00 00 9B  Length = 227910 BitCount = 118 ID = 259
   1.549011 1  104             Rx   d 8 D2 19 00 00 00 00 00 EB  Length = 235926 BitCount = 122 ID = 260
   1.549259 1  105             Rx   d 8 10 27 00 00 00 00 00 37  Length = 239911 BitCount = 124 ID = 261
   1.549547 1  18E00000x       Rx   d 8 00 03 E7 03 2A 00 1E 0F  Length = 279926 BitCount = 144 ID = 417333248x
   1.549833 1  18E00100x       Rx   d 8 03 24 00 01 01 00 50 01  Length = 277910 BitCount = 143 ID = 417333504x
   1.568575 1  102             Rx   d 8 04 03 1C 00 00 00 00 23  Length = 233926 BitCount = 121 ID = 258
   1.568811 1  103             Rx   d 8 FE FF 2C 04 6E 00 00 9B  Length = 227911 BitCount = 118 ID = 259
   1.569055 1  104             Rx   d 8 D2 19 00 00 00 00 00 EB  Length = 235910 BitCount = 122 ID = 260
   1.569303 1  105             Rx   d 8 10 27 00 00 00 00 00 37  Length = 239910 BitCount = 124 ID = 261
   1.569589 1  18E00000x       Rx   d 8 00 03 E7 03 2A 00 2D 0F  Length = 277911 BitCount = 143 ID = 417333248x
   1.569875 1  18E00100x       Rx   d 8 03 24 00 01 01 00 50 01  Length = 277910 BitCount = 143 ID = 417333504x
   1.574045 1  315             Rx   d 8 05 05 03 03 02 00 03 03  Length = 231910 BitCount = 120 ID = 789
   1.588604 1  102             Rx   d 8 04 03 1C 00 00 00 00 23  Length = 233910 BitCount = 121 ID = 258
   1.588842 1  103             Rx   d 8 FF FF 2C 04 6E 00 00 9C  Length = 229910 BitCount = 119 ID = 259
   1.589087 1  104             Rx   d 8 D2 19 00 00 00 00 00 EB  Length = 235911 BitCount = 122 ID = 260
   1.589335 1  105             Rx   d 8 10 27 00 00 00 00 00 37  Length = 239910 BitCount = 124 ID = 261
   1.589623 1  18E00000x       Rx   d 8 00 03 E7 03 2A 00 1E 0F  Length = 279910 BitCount = 144 ID = 417333248x
   1.589909 1  18E00100x       Rx   d 8 03 24 00 01 01 00 50 01  Length = 277911 BitCount = 143 ID = 417333504x
   1.606368 1  221             Rx   d 8 00 45 00 07 05 00 00 4E  Length = 231911 BitCount = 120 ID = 545
   1.608647 1  102             Rx   d 8 04 03 1C 00 00 00 00 23  Length = 233925 BitCount = 121 ID = 258
   1.608885 1  103             Rx   d 8 FF FF 2C 04 6E 00 00 9C  Length = 229910 BitCount = 119 ID = 259
   1.609129 1  104             Rx   d 8 D2 19 00 00 00 00 00 EB  Length = 235926 BitCount = 122 ID = 260
   1.609377 1  105             Rx   d 8 10 27 00 00 00 00 00 37  Length = 239911 BitCount = 124 ID = 261
   1.609663 1  18E00000x       Rx   d 8 00 03 E7 03 2A 00 2B 0F  Length = 277926 BitCount = 143 ID = 417333248x
   1.609949 1  18E00100x       Rx   d 8 03 24 00 01 01 00 50 01  Length = 277911 BitCount = 143 ID = 417333504x
   1.622073 1  311             Rx   d 8 02 00 00 00 4D 00 61 04  Length = 229910 BitCount = 119 ID = 785
   1.628010 1  204             Rx   d 8 E1 FF 37 36 37 3A 41 FF  Length = 225910 BitCount = 117 ID = 516
   1.628248 1  205             Rx   d 8 23 0F 12 0C 0F 05 00 00  Length = 229911 BitCount = 119 ID = 517
   1.628492 1  206             Rx   d 8 35 04 35 02 00 00 00 00  Length = 235910 BitCount = 122 ID = 518
   1.629742 1  102             Rx   d 8 04 03 1C 00 00 00 00 23  Length = 233910 BitCount = 121 ID = 258
   1.629980 1  103             Rx   d 8 FF FF 2C 04 6E 00 00 9C  Length = 229910 BitCount = 119 ID = 259
   1.630224 1  104             Rx   d 8 D2 19 00 00 00 00 00 EB  Length = 235911 BitCount = 122 ID = 260
   1.630472 1  105             Rx   d 8 10 27 00 00 00 00 00 37  Length = 239910 BitCount = 124 ID = 261
   1.630761 1  18E00000x       Rx   d 8 00 03 E7 03 2A 00 22 0F  Length = 279910 BitCount = 144 ID = 417333248x
   1.631047 1  18E00100x       Rx   d 8 03 24 00 01 01 00 50 01  Length = 277910 BitCount = 143 ID = 417333504x
   1.632073 1  112             Rx   d 8 08 00 3A 34 00 00 00 00  Length = 233910 BitCount = 121 ID = 274
   1.642086 1  113             Rx   d 8 01 01 00 00 00 00 00 00  Length = 239910 BitCount = 124 ID = 275
   1.648741 1  102             Rx   d 8 04 03 1C 00 00 00 00 23  Length = 233910 BitCount = 121 ID = 258
   1.648979 1  103             Rx   d 8 FF FF 2C 04 6E 00 00 9C  Length = 229925 BitCount = 119 ID = 259
   1.649223 1  104             Rx   d 8 D2 19 00 00 00 00 00 EB  Length = 235910 BitCount = 122 ID = 260
   1.649471 1  105             Rx   d 8 10 27 00 00 00 00 00 37  Length = 239910 BitCount = 124 ID = 261
   1.649762 1  18E00000x       Rx   d 8 00 03 E7 03 2A 00 1C 0F  Length = 281911 BitCount = 145 ID = 417333248x
   1.650048 1  18E00100x       Rx   d 8 03 24 00 01 01 00 50 01  Length = 277926 BitCount = 143 ID = 417333504x
   1.668783 1  102             Rx   d 8 04 03 1C 00 00 00 00 23  Length = 233926 BitCount = 121 ID = 258
   1.669021 1  103             Rx   d 8 FF FF 2C 04 6E 00 00 9C  Length = 229910 BitCount = 119 ID = 259
   1.669265 1  104             Rx   d 8 D2 19 00 00 00 00 00 EB  Length = 235925 BitCount = 122 ID = 260
   1.669513 1  105             Rx   d 8 10 27 00 00 00 00 00 37  Length = 239910 BitCount = 124 ID = 261
   1.669802 1  18E00000x       Rx   d 8 00 03 E7 03 2A 00 22 0F  Length = 279926 BitCount = 144 ID = 417333248x
   1.670088 1  18E00100x       Rx   d 8 03 24 00 01 01 00 50 01  Length = 277910 BitCount = 143 ID = 417333504x
   1.684079 1  318             Rx   d 8 03 00 00 00 00 00 00 00  Length = 239910 BitCount = 124 ID = 792
   1.688816 1  102             Rx   d 8 04 03 1C 00 00 00 00 23  Length = 233911 BitCount = 121 ID = 258
   1.689054 1  103             Rx   d 8 FF FF 2C 04 6E 00 00 9C  Length = 229910 BitCount = 119 ID = 259
   1.689298 1  104             Rx   d 8 D2 19 00 00 00 00 00 EB  Length = 235910 BitCount = 122 ID = 260
   1.689546 1  105             Rx   d 8 10 27 00 00 00 00 00 37  Length = 239910 BitCount = 124 ID = 261
   1.689836 1  18E00000x       Rx   d 8 00 03 E7 03 2A 00 1C 0F  Length = 281910 BitCount = 145 ID = 417333248x
   1.690122 1  18E00100x       Rx   d 8 03 24 00 01 01 00 50 01  Length = 277911 BitCount = 143 ID = 417333504x
   1.706326 1  221             Rx   d 8 00 45 00 07 05 00 00 4E  Length = 231925 BitCount = 120 ID = 545
   1.708874 1  102             Rx   d 8 04 03 1C 00 00 00 00 23  Length = 233910 BitCount = 121 ID = 258
   1.709112 1  103             Rx   d 8 FF FF 2C 04 6E 00 00 9C  Length = 229911 BitCount = 119 ID = 259
   1.709356 1  104             Rx   d 8 D2 19 00 00 00 00 00 EB  Length = 235910 BitCount = 122 ID = 260
   1.709605 1  105             Rx   d 8 10 27 00 00 00 00 00 37  Length = 239910 BitCount = 124 ID = 261
   1.709893 1  18E00000x       Rx   d 8 00 03 E7 03 2A 00 22 0F  Length = 279910 BitCount = 144 ID = 417333248x
   1.710179 1  18E00100x       Rx   d 8 03 24 00 01 01 00 50 01  Length = 277926 BitCount = 143 ID = 417333504x
   1.723056 1  311             Rx   d 8 02 01 01 00 4D 00 B5 04  Length = 225926 BitCount = 117 ID = 785
   1.726877 1  303             Rx   d 8 03 03 01 02 00 00 00 00  Length = 239926 BitCount = 124 ID = 771
   1.727115 1  302             Rx   d 8 18 05 05 00 10 33 26 00  Length = 229910 BitCount = 119 ID = 770
   1.727347 1  304             Rx   d 8 02 54 51 4C 30 30 31 47  Length = 223926 BitCount = 116 ID = 772
   1.728277 1  201             Rx   d 8 00 00 C8 00 00 00 07 CF  Length = 237910 BitCount = 123 ID = 513
   1.728523 1  202             Rx   d 8 09 01 00 00 00 00 00 0A  Length = 237911 BitCount = 123 ID = 514
   1.728760 1  203             Rx   d 8 82 21 4F C8 E3 F0 50 3C  Length = 227910 BitCount = 118 ID = 515
   1.733059 1  112             Rx   d 8 51 00 3A 34 00 00 00 00  Length = 229926 BitCount = 119 ID = 274
   1.733830 1  102             Rx   d 8 04 03 1C 00 00 00 00 23  Length = 233910 BitCount = 121 ID = 258
   1.734068 1  103             Rx   d 8 FF FF 2C 04 6E 00 00 9C  Length = 229910 BitCount = 119 ID = 259
   1.734312 1  104             Rx   d 8 D2 19 00 00 00 00 00 EB  Length = 235910 BitCount = 122 ID = 260
   1.734560 1  105             Rx   d 8 10 27 00 00 00 00 00 37  Length = 239911 BitCount = 124 ID = 261
   1.734850 1  18E00000x       Rx   d 8 00 03 E7 03 2A 00 1A 0F  Length = 281910 BitCount = 145 ID = 417333248x
   1.735136 1  18E00100x       Rx   d 8 03 24 00 01 01 00 50 01  Length = 277910 BitCount = 143 ID = 417333504x
   1.743078 1  113             Rx   d 8 01 01 00 00 00 00 00 00  Length = 239926 BitCount = 124 ID = 275
   1.748975 1  102             Rx   d 8 04 03 1C 00 00 00 00 23  Length = 233910 BitCount = 121 ID = 258
   1.749213 1  103             Rx   d 8 FF FF 2C 04 6E 00 00 9C  Length = 229910 BitCount = 119 ID = 259
   1.749457 1  104             Rx   d 8 D2 19 00 00 00 00 00 EB  Length = 235911 BitCount = 122 ID = 260
   1.749705 1  105             Rx   d 8 10 27 00 00 00 00 00 37  Length = 239910 BitCount = 124 ID = 261
   1.749993 1  18E00000x       Rx   d 8 00 03 E7 03 2A 00 20 0F  Length = 279910 BitCount = 144 ID = 417333248x
   1.750279 1  18E00100x       Rx   d 8 03 24 00 01 01 00 50 01  Length = 277910 BitCount = 143 ID = 417333504x
   1.769005 1  102             Rx   d 8 04 03 1C 00 00 00 00 23  Length = 233911 BitCount = 121 ID = 258
   1.769243 1  103             Rx   d 8 FF FF 2C 04 6E 00 00 9C  Length = 229910 BitCount = 119 ID = 259
   1.769487 1  104             Rx   d 8 D2 19 00 00 00 00 00 EB  Length = 235910 BitCount = 122 ID = 260
   1.769735 1  105             Rx   d 8 10 27 00 00 00 00 00 37  Length = 239911 BitCount = 124 ID = 261
   1.770021 1  18E00000x       Rx   d 8 00 03 E7 03 2A 00 18 0F  Length = 277910 BitCount = 143 ID = 417333248x
   1.770307 1  18E00100x       Rx   d 8 03 24 00 01 01 00 50 01  Length = 277910 BitCount = 143 ID = 417333504x
   1.775047 1  315             Rx   d 8 05 05 03 03 02 00 03 03  Length = 231910 BitCount = 120 ID = 789
   1.789036 1  102             Rx   d 8 04 03 1C 00 00 00 00 23  Length = 233926 BitCount = 121 ID = 258
   1.789270 1  103             Rx   d 8 F5 FF 2C 04 6E 00 00 92  Length = 225910 BitCount = 117 ID = 259
   1.789514 1  104             Rx   d 8 D2 19 00 00 00 00 00 EB  Length = 235926 BitCount = 122 ID = 260
   1.789763 1  105             Rx   d 8 10 27 00 00 00 00 00 37  Length = 239910 BitCount = 124 ID = 261
   1.790049 1  18E00000x       Rx   d 8 00 03 E7 03 2A 00 18 0F  Length = 277926 BitCount = 143 ID = 417333248x
   1.790335 1  18E00100x       Rx   d 8 03 24 00 01 01 00 50 01  Length = 277910 BitCount = 143 ID = 417333504x
   1.806474 1  221             Rx   d 8 00 45 00 07 05 00 00 4E  Length = 231926 BitCount = 120 ID = 545
   1.809079 1  102             Rx   d 8 04 03 1C 00 00 00 00 23  Length = 233910 BitCount = 121 ID = 258
   1.809313 1  103             Rx   d 8 F5 FF 2C 04 6E 00 00 92  Length = 225911 BitCount = 117 ID = 259
   1.809557 1  104             Rx   d 8 D2 19 00 00 00 00 00 EB  Length = 235910 BitCount = 122 ID = 260
   1.809805 1  105             Rx   d 8 10 27 00 00 00 00 00 37  Length = 239926 BitCount = 124 ID = 261
   1.810095 1  18E00000x       Rx   d 8 00 03 E7 03 2A 00 15 0F  Length = 281911 BitCount = 145 ID = 417333248x
   1.810381 1  18E00100x       Rx   d 8 03 24 00 01 01 00 50 01  Length = 277910 BitCount = 143 ID = 417333504x
   1.824033 1  311             Rx   d 8 02 01 04 00 4D 00 C2 04  Length = 227910 BitCount = 118 ID = 785
   1.828493 1  204             Rx   d 8 22 FF FF FF FF FF FF FF  Length = 241926 BitCount = 125 ID = 516
   1.828731 1  205             Rx   d 8 23 0F 12 0C 0F 05 00 00  Length = 229910 BitCount = 119 ID = 517
   1.828975 1  206             Rx   d 8 35 04 35 02 00 00 00 00  Length = 235925 BitCount = 122 ID = 518
   1.830150 1  102             Rx   d 8 04 03 1C 00 00 00 00 23  Length = 233910 BitCount = 121 ID = 258
   1.830384 1  103             Rx   d 8 F5 FF 2C 04 6E 00 00 92  Length = 225911 BitCount = 117 ID = 259
   1.830628 1  104             Rx   d 8 D2 19 00 00 00 00 00 EB  Length = 235910 BitCount = 122 ID = 260
   1.830876 1  105             Rx   d 8 10 27 00 00 00 00 00 37  Length = 239910 BitCount = 124 ID = 261
   1.831164 1  18E00000x       Rx   d 8 00 03 E7 03 2A 00 22 0F  Length = 279910 BitCount = 144 ID = 417333248x
   1.831450 1  18E00100x       Rx   d 8 03 24 00 01 01 00 50 01  Length = 277910 BitCount = 143 ID = 417333504x
   1.834040 1  112             Rx   d 8 DA 00 3A 34 00 00 00 00  Length = 233910 BitCount = 121 ID = 274
   1.844050 1  113             Rx   d 8 01 01 00 00 00 00 00 00  Length = 239910 BitCount = 124 ID = 275
   1.849192 1  102             Rx   d 8 04 03 1C 00 00 00 00 23  Length = 233925 BitCount = 121 ID = 258
   1.849426 1  103             Rx   d 8 F5 FF 2C 04 6E 00 00 92  Length = 225910 BitCount = 117 ID = 259
   1.849671 1  104             Rx   d 8 D2 19 00 00 00 00 00 EB  Length = 235926 BitCount = 122 ID = 260
   1.849919 1  105             Rx   d 8 10 27 00 00 00 00 00 37  Length = 239911 BitCount = 124 ID = 261
   1.850209 1  18E00000x       Rx   d 8 00 03 E7 03 2A 00 1A 0F  Length = 281910 BitCount = 145 ID = 417333248x
   1.850495 1  18E00100x       Rx   d 8 03 24 00 01 01 00 50 01  Length = 277911 BitCount = 143 ID = 417333504x
   1.862027 1  31E             Rx   d 8 D7 2B 14 19 3F 86 7F B2  Length = 219910 BitCount = 114 ID = 798
   1.869233 1  102             Rx   d 8 04 03 1C 00 00 00 00 23  Length = 233910 BitCount = 121 ID = 258
   1.869467 1  103             Rx   d 8 F5 FF 2C 04 6E 00 00 92  Length = 225910 BitCount = 117 ID = 259
   1.869712 1  104             Rx   d 8 D2 19 00 00 00 00 00 EB  Length = 235910 BitCount = 122 ID = 260
   1.869960 1  105             Rx   d 8 10 27 00 00 00 00 00 37  Length = 239911 BitCount = 124 ID = 261
   1.870246 1  18E00000x       Rx   d 8 00 03 E7 03 2A 00 18 0F  Length = 277910 BitCount = 143 ID = 417333248x
   1.870532 1  18E00100x       Rx   d 8 03 24 00 01 01 00 50 01  Length = 277910 BitCount = 143 ID = 417333504x
   1.889267 1  102             Rx   d 8 04 03 1C 00 00 00 00 23  Length = 233910 BitCount = 121 ID = 258
   1.889501 1  103             Rx   d 8 F5 FF 2C 04 6E 00 00 92  Length = 225910 BitCount = 117 ID = 259
   1.889746 1  104             Rx   d 8 D2 19 00 00 00 00 00 EB  Length = 235910 BitCount = 122 ID = 260
   1.889994 1  105             Rx   d 8 10 27 00 00 00 00 00 37  Length = 239910 BitCount = 124 ID = 261
   1.890282 1  18E00000x       Rx   d 8 00 03 E7 03 2A 00 0F 0F  Length = 279911 BitCount = 144 ID = 417333248x
   1.890568 1  18E00100x       Rx   d 8 03 24 00 01 01 00 50 01  Length = 277910 BitCount = 143 ID = 417333504x
   1.906315 1  221             Rx   d 8 01 45 00 07 05 00 00 4E  Length = 229910 BitCount = 119 ID = 545
   1.909314 1  102             Rx   d 8 04 03 1C 00 00 00 00 23  Length = 233926 BitCount = 121 ID = 258
   1.909548 1  103             Rx   d 8 F5 FF 2C 04 6E 00 00 92  Length = 225910 BitCount = 117 ID = 259
   1.909792 1  104             Rx   d 8 D2 19 00 00 00 00 00 EB  Length = 235925 BitCount = 122 ID = 260
   1.910040 1  105             Rx   d 8 10 27 00 00 00 00 00 37  Length = 239910 BitCount = 124 ID = 261
   1.910330 1  18E00000x       Rx   d 8 00 03 E7 03 2A 00 1A 0F  Length = 281926 BitCount = 145 ID = 417333248x
   1.910616 1  18E00100x       Rx   d 8 03 24 00 01 01 00 50 01  Length = 277911 BitCount = 143 ID = 417333504x
   1.925058 1  311             Rx   d 8 02 01 08 00 4D 00 C2 04  Length = 225910 BitCount = 117 ID = 785
   1.927304 1  303             Rx   d 8 03 03 01 02 00 00 00 00  Length = 239911 BitCount = 124 ID = 771
   1.927542 1  302             Rx   d 8 18 05 05 00 10 33 26 00  Length = 229926 BitCount = 119 ID = 770
   1.927778 1  304             Rx   d 8 03 44 35 4E 30 30 30 30  Length = 227910 BitCount = 118 ID = 772
   1.928703 1  201             Rx   d 8 00 00 C8 00 00 00 07 CF  Length = 237911 BitCount = 123 ID = 513
   1.928949 1  202             Rx   d 8 09 01 00 00 00 00 00 0A  Length = 237910 BitCount = 123 ID = 514
   1.929185 1  203             Rx   d 8 83 11 0F C4 13 F1 88 3C  Length = 227910 BitCount = 118 ID = 515
   1.934237 1  102             Rx   d 8 04 03 1C 00 00 00 00 23  Length = 233910 BitCount = 121 ID = 258
   1.934474 1  103             Rx   d 8 F5 FF 2C 04 6E 00 00 92  Length = 225910 BitCount = 117 ID = 259
   1.934718 1  104             Rx   d 8 D2 19 00 00 00 00 00 EB  Length = 235911 BitCount = 122 ID = 260
   1.934966 1  105             Rx   d 8 10 27 00 00 00 00 00 37  Length = 239910 BitCount = 124 ID = 261
   1.935202 1  112             Rx   d 8 87 01 3A 34 00 00 00 00  Length = 227910 BitCount = 118 ID = 274
   1.935488 1  18E00000x       Rx   d 8 00 03 E7 03 2A 00 11 0F  Length = 277911 BitCount = 143 ID = 417333248x
   1.935774 1  18E00100x       Rx   d 8 03 24 00 01 01 00 50 01  Length = 277910 BitCount = 143 ID = 417333504x
   1.945076 1  113             Rx   d 8 01 01 00 00 00 00 00 00  Length = 239910 BitCount = 124 ID = 275
   1.949412 1  102             Rx   d 8 04 03 1C 00 00 00 00 23  Length = 233910 BitCount = 121 ID = 258
   1.949646 1  103             Rx   d 8 F5 FF 2C 04 6E 00 00 92  Length = 225911 BitCount = 117 ID = 259
   1.949890 1  104             Rx   d 8 D2 19 00 00 00 00 00 EB  Length = 235910 BitCount = 122 ID = 260
   1.950139 1  105             Rx   d 8 10 27 00 00 00 00 00 37  Length = 239910 BitCount = 124 ID = 261
   1.950425 1  18E00000x       Rx   d 8 00 03 E7 03 2A 00 18 0F  Length = 277910 BitCount = 143 ID = 417333248x
   1.950711 1  18E00100x       Rx   d 8 03 24 00 01 01 00 50 01  Length = 277926 BitCount = 143 ID = 417333504x
   1.969458 1  102             Rx   d 8 04 03 1C 00 00 00 00 23  Length = 233926 BitCount = 121 ID = 258
   1.969692 1  103             Rx   d 8 F5 FF 2C 04 6E 00 00 92  Length = 225910 BitCount = 117 ID = 259
   1.969936 1  104             Rx   d 8 D2 19 00 00 00 00 00 EB  Length = 235926 BitCount = 122 ID = 260
   1.970185 1  105             Rx   d 8 10 27 00 00 00 00 00 37  Length = 239910 BitCount = 124 ID = 261
   1.970473 1  18E00000x       Rx   d 8 00 03 E7 03 2A 00 22 0F  Length = 279925 BitCount = 144 ID = 417333248x
   1.970759 1  18E00100x       Rx   d 8 03 24 00 01 01 00 50 01  Length = 277910 BitCount = 143 ID = 417333504x
   1.976067 1  315             Rx   d 8 05 05 03 03 02 00 03 03  Length = 231910 BitCount = 120 ID = 789
   1.985052 1  317             Rx   d 8 50 35 25 32 33 00 00 00  Length = 227910 BitCount = 118 ID = 791
   1.989491 1  102             Rx   d 8 04 03 1C 00 00 00 00 23  Length = 233910 BitCount = 121 ID = 258
   1.989727 1  103             Rx   d 8 D8 FF 2C 04 6E 00 00 75  Length = 227926 BitCount = 118 ID = 259
   1.989971 1  104             Rx   d 8 D2 19 00 00 00 00 00 EB  Length = 235911 BitCount = 122 ID = 260
   1.990219 1  105             Rx   d 8 10 27 00 00 00 00 00 37  Length = 239926 BitCount = 124 ID = 261
   1.990507 1  18E00000x       Rx   d 8 00 03 E7 03 2A 00 20 0F  Length = 279910 BitCount = 144 ID = 417333248x
   1.990794 1  18E00100x       Rx   d 8 03 24 00 01 01 00 50 01  Length = 277910 BitCount = 143 ID = 417333504x
   2.006313 1  221             Rx   d 8 03 45 00 07 05 00 00 4E  Length = 227910 BitCount = 118 ID = 545
   2.009535 1  102             Rx   d 8 04 03 1C 00 00 00 00 23  Length = 233911 BitCount = 121 ID = 258
   2.009772 1  103             Rx   d 8 D8 FF 2C 04 6E 00 00 75  Length = 227910 BitCount = 118 ID = 259
   2.010016 1  104             Rx   d 8 D2 19 00 00 00 00 00 EB  Length = 235910 BitCount = 122 ID = 260
   2.010264 1  105             Rx   d 8 10 27 00 00 00 00 00 37  Length = 239911 BitCount = 124 ID = 261
   2.010552 1  18E00000x       Rx   d 8 00 03 E7 03 2A 00 22 0F  Length = 279910 BitCount = 144 ID = 417333248x
   2.010838 1  18E00100x       Rx   d 8 03 24 00 01 01 00 50 01  Length = 277910 BitCount = 143 ID = 417333504x
   2.026036 1  311             Rx   d 8 02 00 09 00 4D 00 8C 04  Length = 225910 BitCount = 117 ID = 785
   2.026534 1  305             Rx   d 8 00 33 01 22 08 02 02 00  Length = 233911 BitCount = 121 ID = 773
   2.026772 1  306             Rx   d 8 00 33 01 22 08 03 01 01  Length = 229910 BitCount = 119 ID = 774
   2.027062 1  18E0000Bx       Rx   d 8 00 00 00 00 00 00 01 00  Length = 281910 BitCount = 145 ID = 417333259x
   2.028912 1  204             Rx   d 8 E0 35 35 35 36 FF FF FF  Length = 229910 BitCount = 119 ID = 516
   2.029150 1  205             Rx   d 8 23 0F 12 0C 0F 04 00 00  Length = 229925 BitCount = 119 ID = 517
   2.029393 1  206             Rx   d 8 36 04 35 02 00 00 00 00  Length = 233910 BitCount = 121 ID = 518
   2.030621 1  102             Rx   d 8 04 03 1C 00 00 00 00 23  Length = 233926 BitCount = 121 ID = 258
   2.030857 1  103             Rx   d 8 D8 FF 2C 04 6E 00 00 75  Length = 227910 BitCount = 118 ID = 259
   2.031101 1  104             Rx   d 8 D2 19 00 00 00 00 00 EB  Length = 235925 BitCount = 122 ID = 260
   2.031349 1  105             Rx   d 8 10 27 00 00 00 00 00 37  Length = 239910 BitCount = 124 ID = 261
   2.031637 1  18E00000x       Rx   d 8 00 03 E7 03 2A 00 22 0F  Length = 279910 BitCount = 144 ID = 417333248x
   2.031923 1  18E00100x       Rx   d 8 03 24 00 01 01 00 50 01  Length = 277911 BitCount = 143 ID = 417333504x
   2.036039 1  112             Rx   d 8 09 02 3A 34 00 00 00 00  Length = 229910 BitCount = 119 ID = 274
   2.046049 1  113             Rx   d 8 01 01 00 00 00 00 00 00  Length = 239910 BitCount = 124 ID = 275
   2.048164 1  Statistic: D 295 R 0 XD 103 XR 0 E 0 O 0 B 10.09%
   2.048164 CAN 1 Status:chip status error active
   2.049627 1  102             Rx   d 8 04 03 1C 00 00 00 00 23  Length = 233910 BitCount = 121 ID = 258
   2.049864 1  103             Rx   d 8 D8 FF 2C 04 6E 00 00 75  Length = 227911 BitCount = 118 ID = 259
   2.050108 1  104             Rx   d 8 D2 19 00 00 00 00 00 EB  Length = 235910 BitCount = 122 ID = 260
   2.050356 1  105             Rx   d 8 10 27 00 00 00 00 00 37  Length = 239926 BitCount = 124 ID = 261
   2.050646 1  18E00000x       Rx   d 8 00 03 E7 03 2A 00 1C 0F  Length = 281911 BitCount = 145 ID = 417333248x
   2.050932 1  18E00100x       Rx   d 8 03 24 00 01 01 00 50 01  Length = 277926 BitCount = 143 ID = 417333504x
   2.069669 1  102             Rx   d 8 04 03 1C 00 00 00 00 23  Length = 233910 BitCount = 121 ID = 258
   2.069906 1  103             Rx   d 8 D8 FF 2C 04 6E 00 00 75  Length = 227910 BitCount = 118 ID = 259
   2.070150 1  104             Rx   d 8 D2 19 00 00 00 00 00 EB  Length = 235911 BitCount = 122 ID = 260
   2.070398 1  105             Rx   d 8 10 27 00 00 00 00 00 37  Length = 239910 BitCount = 124 ID = 261
   2.070686 1  18E00000x       Rx   d 8 00 03 E7 03 2A 00 1E 0F  Length = 279910 BitCount = 144 ID = 417333248x
   2.070972 1  18E00100x       Rx   d 8 03 24 00 01 01 00 50 01  Length = 277911 BitCount = 143 ID = 417333504x
   2.089713 1  102             Rx   d 8 04 03 1C 00 00 00 00 23  Length = 233910 BitCount = 121 ID = 258
   2.089949 1  103             Rx   d 8 D8 FF 2C 04 6E 00 00 75  Length = 227910 BitCount = 118 ID = 259
   2.090194 1  104             Rx   d 8 D2 19 00 00 00 00 00 EB  Length = 235926 BitCount = 122 ID = 260
   2.090442 1  105             Rx   d 8 10 27 00 00 00 00 00 37  Length = 239911 BitCount = 124 ID = 261
   2.090730 1  18E00000x       Rx   d 8 00 03 E7 03 2A 00 20 0F  Length = 279910 BitCount = 144 ID = 417333248x
   2.091016 1  18E00100x       Rx   d 8 03 24 00 01 01 00 50 01  Length = 277910 BitCount = 143 ID = 417333504x
   2.109773 1  102             Rx   d 8 04 03 1C 00 00 00 00 23  Length = 233910 BitCount = 121 ID = 258
   2.110009 1  103             Rx   d 8 D8 FF 2C 04 6E 00 00 75  Length = 227925 BitCount = 118 ID = 259
   2.110254 1  104             Rx   d 8 D2 19 00 00 00 00 00 EB  Length = 235910 BitCount = 122 ID = 260
   2.110502 1  105             Rx   d 8 10 27 00 00 00 00 00 37  Length = 239926 BitCount = 124 ID = 261
   2.110790 1  18E00000x       Rx   d 8 00 03 E7 03 2A 00 1E 0F  Length = 279911 BitCount = 144 ID = 417333248x
   2.111076 1  18E00100x       Rx   d 8 03 24 00 01 01 00 50 01  Length = 277926 BitCount = 143 ID = 417333504x
   2.113510 1  221             Rx   d 8 06 45 00 07 05 00 00 4E  Length = 227910 BitCount = 118 ID = 545
   2.127022 1  311             Rx   d 8 02 00 07 00 4D 00 E9 03  Length = 225926 BitCount = 117 ID = 785
   2.127756 1  303             Rx   d 8 03 03 01 02 00 00 00 00  Length = 239910 BitCount = 124 ID = 771
   2.127994 1  302             Rx   d 8 18 05 05 00 10 33 26 00  Length = 229910 BitCount = 119 ID = 770
   2.128238 1  304             Rx   d 8 04 30 34 33 00 00 00 00  Length = 235925 BitCount = 122 ID = 772
   2.129148 1  201             Rx   d 8 00 00 C8 00 00 00 07 CF  Length = 237926 BitCount = 123 ID = 513
   2.129394 1  202             Rx   d 8 09 01 00 00 00 00 00 0A  Length = 237910 BitCount = 123 ID = 514
   2.129628 1  203             Rx   d 8 84 21 CF C8 13 F2 80 3C  Length = 225911 BitCount = 117 ID = 515
   2.134721 1  102             Rx   d 8 04 03 1C 00 00 00 00 23  Length = 233926 BitCount = 121 ID = 258
   2.134957 1  103             Rx   d 8 D8 FF 2C 04 6E 00 00 75  Length = 227911 BitCount = 118 ID = 259
   2.135201 1  104             Rx   d 8 D2 19 00 00 00 00 00 EB  Length = 235910 BitCount = 122 ID = 260
   2.135449 1  105             Rx   d 8 10 27 00 00 00 00 00 37  Length = 239910 BitCount = 124 ID = 261
   2.135737 1  18E00000x       Rx   d 8 00 03 E7 03 2A 00 22 0F  Length = 279911 BitCount = 144 ID = 417333248x
   2.136024 1  18E00100x       Rx   d 8 03 24 00 01 01 00 50 01  Length = 277910 BitCount = 143 ID = 417333504x
   2.137070 1  112             Rx   d 8 1D 02 3A 34 00 00 00 00  Length = 231926 BitCount = 120 ID = 274
   2.147067 1  113             Rx   d 8 01 01 00 00 00 00 00 00  Length = 239926 BitCount = 124 ID = 275
   2.149840 1  102             Rx   d 8 04 03 1C 00 00 00 00 23  Length = 233911 BitCount = 121 ID = 258
   2.150076 1  103             Rx   d 8 D8 FF 2C 04 6E 00 00 75  Length = 227910 BitCount = 118 ID = 259
   2.150320 1  104             Rx   d 8 D2 19 00 00 00 00 00 EB  Length = 235910 BitCount = 122 ID = 260
   2.150568 1  105             Rx   d 8 10 27 00 00 00 00 00 37  Length = 239910 BitCount = 124 ID = 261
   2.150858 1  18E00000x       Rx   d 8 00 03 E7 03 2A 00 24 0F  Length = 281910 BitCount = 145 ID = 417333248x
   2.151144 1  18E00100x       Rx   d 8 03 24 00 01 01 00 50 01  Length = 277911 BitCount = 143 ID = 417333504x
   2.169896 1  102             Rx   d 8 04 03 1C 00 00 00 00 23  Length = 233910 BitCount = 121 ID = 258
   2.170132 1  103             Rx   d 8 D8 FF 2C 04 6E 00 00 75  Length = 227926 BitCount = 118 ID = 259
   2.170376 1  104             Rx   d 8 D2 19 00 00 00 00 00 EB  Length = 235910 BitCount = 122 ID = 260
   2.170624 1  105             Rx   d 8 10 27 00 00 00 00 00 37  Length = 239925 BitCount = 124 ID = 261
   2.170912 1  18E00000x       Rx   d 8 00 03 E7 03 2A 00 22 0F  Length = 279910 BitCount = 144 ID = 417333248x
   2.171198 1  18E00100x       Rx   d 8 03 24 00 01 01 00 50 01  Length = 277926 BitCount = 143 ID = 417333504x
   2.177052 1  315             Rx   d 8 05 05 03 03 02 00 03 03  Length = 231926 BitCount = 120 ID = 789
   2.185060 1  318             Rx   d 8 04 00 00 04 05 00 20 00  Length = 235910 BitCount = 122 ID = 792
   2.189941 1  102             Rx   d 8 04 03 1C 00 00 00 00 23  Length = 233910 BitCount = 121 ID = 258
   2.190177 1  103             Rx   d 8 D8 FF 2C 04 6E 00 00 75  Length = 227911 BitCount = 118 ID = 259
   2.190421 1  104             Rx   d 8 D2 19 00 00 00 00 00 EB  Length = 235926 BitCount = 122 ID = 260
   2.190669 1  105             Rx   d 8 10 27 00 00 00 00 00 37  Length = 239910 BitCount = 124 ID = 261
   2.190959 1  18E00000x       Rx   d 8 00 03 E7 03 2A 00 1C 0F  Length = 281925 BitCount = 145 ID = 417333248x
   2.191245 1  18E00100x       Rx   d 8 03 24 00 01 01 00 50 01  Length = 277910 BitCount = 143 ID = 417333504x
   2.206305 1  221             Rx   d 8 08 45 00 07 05 00 00 4E  Length = 229910 BitCount = 119 ID = 545
   2.209999 1  102             Rx   d 8 04 03 1C 00 00 00 00 23  Length = 233910 BitCount = 121 ID = 258
   2.210235 1  103             Rx   d 8 D8 FF 2C 04 6E 00 00 75  Length = 227910 BitCount = 118 ID = 259
   2.210479 1  104             Rx   d 8 D2 19 00 00 00 00 00 EB  Length = 235911 BitCount = 122 ID = 260
   2.210727 1  105             Rx   d 8 10 27 00 00 00 00 00 37  Length = 239910 BitCount = 124 ID = 261
   2.211016 1  18E00000x       Rx   d 8 00 03 E7 03 2A 00 1E 0F  Length = 279910 BitCount = 144 ID = 417333248x
   2.211302 1  18E00100x       Rx   d 8 03 24 00 01 01 00 50 01  Length = 277910 BitCount = 143 ID = 417333504x
   2.228043 1  311             Rx   d 8 02 00 07 00 4D 00 12 04  Length = 227910 BitCount = 118 ID = 785
   2.229357 1  204             Rx   d 8 E1 FF 37 36 37 3A 41 FF  Length = 225910 BitCount = 117 ID = 516
   2.229598 1  205             Rx   d 8 21 0F 12 0A 0F 05 00 00  Length = 231910 BitCount = 120 ID = 517
   2.229842 1  206             Rx   d 8 35 04 35 02 00 00 00 00  Length = 235926 BitCount = 122 ID = 518
   2.231038 1  102             Rx   d 8 04 03 1C 00 00 00 00 23  Length = 233910 BitCount = 121 ID = 258
   2.231274 1  103             Rx   d 8 D8 FF 2C 04 6E 00 00 75  Length = 227925 BitCount = 118 ID = 259
   2.231518 1  104             Rx   d 8 D2 19 00 00 00 00 00 EB  Length = 235910 BitCount = 122 ID = 260
   2.231766 1  105             Rx   d 8 10 27 00 00 00 00 00 37  Length = 239910 BitCount = 124 ID = 261
   2.232052 1  18E00000x       Rx   d 8 00 03 E7 03 2A 00 18 0F  Length = 277911 BitCount = 143 ID = 417333248x
   2.232339 1  18E00100x       Rx   d 8 03 24 00 01 01 00 50 01  Length = 277926 BitCount = 143 ID = 417333504x
   2.238058 1  112             Rx   d 8 11 02 3A 34 00 00 00 00  Length = 231910 BitCount = 120 ID = 274
   2.248058 1  113             Rx   d 8 01 01 00 00 00 00 00 00  Length = 239910 BitCount = 124 ID = 275
   2.250080 1  102             Rx   d 8 04 03 1C 00 00 00 00 23  Length = 233911 BitCount = 121 ID = 258
   2.250316 1  103             Rx   d 8 D8 FF 2C 04 6E 00 00 75  Length = 227910 BitCount = 118 ID = 259
   2.250560 1  104             Rx   d 8 D2 19 00 00 00 00 00 EB  Length = 235926 BitCount = 122 ID = 260
   2.250809 1  105             Rx   d 8 10 27 00 00 00 00 00 37  Length = 239911 BitCount = 124 ID = 261
   2.251099 1  18E00000x       Rx   d 8 00 03 E7 03 2A 00 1C 0F  Length = 281926 BitCount = 145 ID = 417333248x
   2.251385 1  18E00100x       Rx   d 8 03 24 00 01 01 00 50 01  Length = 277910 BitCount = 143 ID = 417333504x
   2.270138 1  102             Rx   d 8 04 03 1C 00 00 00 00 23  Length = 233910 BitCount = 121 ID = 258
   2.270374 1  103             Rx   d 8 D8 FF 2C 04 6E 00 00 75  Length = 227911 BitCount = 118 ID = 259
   2.270618 1  104             Rx   d 8 D2 19 00 00 00 00 00 EB  Length = 235910 BitCount = 122 ID = 260
   2.270867 1  105             Rx   d 8 10 27 00 00 00 00 00 37  Length = 239910 BitCount = 124 ID = 261
   2.271155 1  18E00000x       Rx   d 8 00 03 E7 03 2A 00 22 0F  Length = 279911 BitCount = 144 ID = 417333248x
   2.271441 1  18E00100x       Rx   d 8 03 24 00 01 01 00 50 01  Length = 277910 BitCount = 143 ID = 417333504x
   2.290188 1  102             Rx   d 8 04 03 1C 00 00 00 00 23  Length = 233910 BitCount = 121 ID = 258
   2.290424 1  103             Rx   d 8 D8 FF 2C 04 6E 00 00 75  Length = 227926 BitCount = 118 ID = 259
   2.290668 1  104             Rx   d 8 D2 19 00 00 00 00 00 EB  Length = 235911 BitCount = 122 ID = 260
   2.290917 1  105             Rx   d 8 10 27 00 00 00 00 00 37  Length = 239910 BitCount = 124 ID = 261
   2.291207 1  18E00000x       Rx   d 8 00 03 E7 03 23 00 1A 0F  Length = 281910 BitCount = 145 ID = 417333248x
   2.291493 1  18E00100x       Rx   d 8 03 24 00 01 01 00 50 01  Length = 277926 BitCount = 143 ID = 417333504x
   2.306520 1  221             Rx   d 8 08 45 00 07 05 00 00 4E  Length = 229911 BitCount = 119 ID = 545
   2.310223 1  102             Rx   d 8 04 03 1C 00 00 00 00 23  Length = 233925 BitCount = 121 ID = 258
   2.310459 1  103             Rx   d 8 D8 FF 2C 04 6E 00 00 75  Length = 227910 BitCount = 118 ID = 259
   2.310703 1  104             Rx   d 8 D2 19 00 00 00 00 00 EB  Length = 235926 BitCount = 122 ID = 260
   2.310951 1  105             Rx   d 8 10 27 00 00 00 00 00 37  Length = 239910 BitCount = 124 ID = 261
   2.311239 1  18E00000x       Rx   d 8 00 03 E7 03 2A 00 20 0F  Length = 279926 BitCount = 144 ID = 417333248x
   2.311525 1  18E00100x       Rx   d 8 03 24 00 01 01 00 50 01  Length = 277911 BitCount = 143 ID = 417333504x
   2.328208 1  303             Rx   d 8 03 03 01 02 00 00 00 00  Length = 239910 BitCount = 124 ID = 771
   2.328447 1  302             Rx   d 8 18 05 05 00 10 33 26 00  Length = 229910 BitCount = 119 ID = 770
