date Sam Apr 27 18:21:10.685 2024
base hex  timestamps absolute
internal events logged
// version 15.4.0
// Measurement UUID: c860050c-e32f-4a9a-be10-6ced68eb0e75
Begin TriggerBlock Sam Apr 27 18:21:10.685 2024
   0.000000 Start of measurement
   0.003006 1  113             Rx   d 8 01 01 00 00 00 03 00 00  Length = 237910 BitCount = 123 ID = 275
   0.003496 CAN 1 Status:chip status error active
   0.003496 CAN 2 Status:chip status error active
   0.008222 1  102             Rx   d 8 25 03 1C 00 00 00 00 44  Length = 237926 BitCount = 123 ID = 258
   0.008461 1  103             Rx   d 8 FF FF 2C 04 5A 00 00 88  Length = 229910 BitCount = 119 ID = 259
   0.008709 1  104             Rx   d 8 B2 20 00 00 00 00 00 D2  Length = 239926 BitCount = 124 ID = 260
   0.008957 1  105             Rx   d 8 10 27 00 00 00 00 00 37  Length = 239910 BitCount = 124 ID = 261
   0.009247 1  18E00000x       Rx   d 8 00 03 E7 03 28 00 C0 0F  Length = 281926 BitCount = 145 ID = 417333248x
   0.009533 1  18E00100x       Rx   d 8 03 20 00 01 01 00 50 01  Length = 277910 BitCount = 143 ID = 417333504x
   0.012981 1  315             Rx   d 8 05 05 03 03 01 00 03 03  Length = 231926 BitCount = 120 ID = 789
   0.028294 1  102             Rx   d 8 25 03 1C 00 00 00 00 44  Length = 237910 BitCount = 123 ID = 258
   0.028532 1  103             Rx   d 8 FF FF 2C 04 5A 00 00 88  Length = 229910 BitCount = 119 ID = 259
   0.028780 1  104             Rx   d 8 B2 20 00 00 00 00 00 D2  Length = 239910 BitCount = 124 ID = 260
   0.029029 1  105             Rx   d 8 10 27 00 00 00 00 00 37  Length = 239911 BitCount = 124 ID = 261
   0.029317 1  18E00000x       Rx   d 8 00 03 E7 03 28 00 C2 0F  Length = 279910 BitCount = 144 ID = 417333248x
   0.029603 1  18E00100x       Rx   d 8 03 20 00 01 01 00 50 01  Length = 277910 BitCount = 143 ID = 417333504x
   0.041917 1  221             Rx   d 8 00 5A 00 C5 03 00 00 54  Length = 227926 BitCount = 118 ID = 545
   0.048337 1  102             Rx   d 8 25 03 1C 00 00 00 00 44  Length = 237910 BitCount = 123 ID = 258
   0.048575 1  103             Rx   d 8 FF FF 2C 04 5A 00 00 88  Length = 229910 BitCount = 119 ID = 259
   0.048823 1  104             Rx   d 8 B2 20 00 00 00 00 00 D2  Length = 239911 BitCount = 124 ID = 260
   0.049071 1  105             Rx   d 8 10 27 00 00 00 00 00 37  Length = 239910 BitCount = 124 ID = 261
   0.049362 1  18E00000x       Rx   d 8 00 03 E7 03 19 00 C0 0F  Length = 281910 BitCount = 145 ID = 417333248x
   0.049648 1  18E00100x       Rx   d 8 03 20 00 01 01 00 50 01  Length = 277911 BitCount = 143 ID = 417333504x
   0.068371 1  102             Rx   d 8 25 03 1C 00 00 00 00 44  Length = 237926 BitCount = 123 ID = 258
   0.068609 1  103             Rx   d 8 FF FF 2C 04 5A 00 00 88  Length = 229910 BitCount = 119 ID = 259
   0.068857 1  104             Rx   d 8 B2 20 00 00 00 00 00 D2  Length = 239926 BitCount = 124 ID = 260
   0.069105 1  105             Rx   d 8 10 27 00 00 00 00 00 37  Length = 239910 BitCount = 124 ID = 261
   0.069394 1  18E00000x       Rx   d 8 00 03 E7 03 28 00 C2 0F  Length = 279926 BitCount = 144 ID = 417333248x
   0.069680 1  18E00100x       Rx   d 8 03 20 00 01 01 00 50 01  Length = 277910 BitCount = 143 ID = 417333504x
   0.083991 1  311             Rx   d 8 02 00 00 00 50 00 CB 02  Length = 233926 BitCount = 121 ID = 785
   0.087726 1  204             Rx   d 8 E1 FF 39 39 39 3B 41 FF  Length = 225926 BitCount = 117 ID = 516
   0.087962 1  205             Rx   d 8 C5 0F 12 AE 0F 05 00 00  Length = 227910 BitCount = 118 ID = 517
   0.088208 1  206             Rx   d 8 38 01 37 02 00 00 00 00  Length = 237926 BitCount = 123 ID = 518
   0.093316 1  102             Rx   d 8 25 03 1C 00 00 00 00 44  Length = 237911 BitCount = 123 ID = 258
   0.093554 1  103             Rx   d 8 FF FF 2C 04 5A 00 00 88  Length = 229910 BitCount = 119 ID = 259
   0.093803 1  104             Rx   d 8 B2 20 00 00 00 00 00 D2  Length = 239910 BitCount = 124 ID = 260
   0.094051 1  105             Rx   d 8 10 27 00 00 00 00 00 37  Length = 239911 BitCount = 124 ID = 261
   0.094295 1  112             Rx   d 8 00 00 3C 37 00 00 00 00  Length = 235910 BitCount = 122 ID = 274
   0.094585 1  18E00000x       Rx   d 8 00 03 E7 03 28 00 C0 0F  Length = 281911 BitCount = 145 ID = 417333248x
   0.094871 1  18E00100x       Rx   d 8 03 20 00 01 01 00 50 01  Length = 277910 BitCount = 143 ID = 417333504x
   0.103989 1  113             Rx   d 8 01 01 00 00 00 03 00 00  Length = 237910 BitCount = 123 ID = 275
   0.108453 1  102             Rx   d 8 25 03 1C 00 00 00 00 44  Length = 237911 BitCount = 123 ID = 258
   0.108691 1  103             Rx   d 8 FF FF 2C 04 5A 00 00 88  Length = 229910 BitCount = 119 ID = 259
   0.108939 1  104             Rx   d 8 B2 20 00 00 00 00 00 D2  Length = 239910 BitCount = 124 ID = 260
   0.109188 1  105             Rx   d 8 10 27 00 00 00 00 00 37  Length = 239911 BitCount = 124 ID = 261
   0.109476 1  18E00000x       Rx   d 8 00 03 E7 03 2A 00 C0 0F  Length = 279910 BitCount = 144 ID = 417333248x
   0.109762 1  18E00100x       Rx   d 8 03 20 00 01 01 00 50 01  Length = 277910 BitCount = 143 ID = 417333504x
   0.128507 1  102             Rx   d 8 25 03 1C 00 00 00 00 44  Length = 237926 BitCount = 123 ID = 258
   0.128745 1  103             Rx   d 8 FF FF 2C 04 5A 00 00 88  Length = 229910 BitCount = 119 ID = 259
   0.128993 1  104             Rx   d 8 B2 20 00 00 00 00 00 D2  Length = 239926 BitCount = 124 ID = 260
   0.129242 1  105             Rx   d 8 10 27 00 00 00 00 00 37  Length = 239910 BitCount = 124 ID = 261
   0.129526 1  18E00000x       Rx   d 8 00 03 E7 03 28 00 C7 0F  Length = 275926 BitCount = 142 ID = 417333248x
   0.129812 1  18E00100x       Rx   d 8 03 20 00 01 01 00 50 01  Length = 277910 BitCount = 143 ID = 417333504x
   0.141866 1  221             Rx   d 8 00 5A 00 C5 03 00 00 54  Length = 227910 BitCount = 118 ID = 545
   0.148536 1  102             Rx   d 8 25 03 1C 00 00 00 00 44  Length = 237910 BitCount = 123 ID = 258
   0.148774 1  103             Rx   d 8 FF FF 2C 04 5A 00 00 88  Length = 229910 BitCount = 119 ID = 259
   0.149022 1  104             Rx   d 8 B2 20 00 00 00 00 00 D2  Length = 239911 BitCount = 124 ID = 260
   0.149270 1  105             Rx   d 8 10 27 00 00 00 00 00 37  Length = 239910 BitCount = 124 ID = 261
   0.149561 1  18E00000x       Rx   d 8 00 03 E7 03 28 00 C0 0F  Length = 281910 BitCount = 145 ID = 417333248x
   0.149847 1  18E00100x       Rx   d 8 03 20 00 01 01 00 50 01  Length = 277910 BitCount = 143 ID = 417333504x
   0.168594 1  102             Rx   d 8 25 03 1C 00 00 00 00 44  Length = 237910 BitCount = 123 ID = 258
   0.168832 1  103             Rx   d 8 FF FF 2C 04 5A 00 00 88  Length = 229911 BitCount = 119 ID = 259
   0.169080 1  104             Rx   d 8 B2 20 00 00 00 00 00 D2  Length = 239910 BitCount = 124 ID = 260
   0.169329 1  105             Rx   d 8 10 27 00 00 00 00 00 37  Length = 239910 BitCount = 124 ID = 261
   0.169613 1  18E00000x       Rx   d 8 00 03 E7 03 28 00 CD 0F  Length = 275910 BitCount = 142 ID = 417333248x
   0.169899 1  18E00100x       Rx   d 8 03 20 00 01 01 00 50 01  Length = 277910 BitCount = 143 ID = 417333504x
   0.184590 1  18E00001x       Rx   d 8 60 00 2C 04 F3 01 2C 04  Length = 271910 BitCount = 140 ID = 417333249x
   0.184976 1  311             Rx   d 8 02 00 00 00 50 00 CB 02  Length = 233911 BitCount = 121 ID = 785
   0.185586 1  305             Rx   d 8 00 33 01 22 08 02 02 00  Length = 233910 BitCount = 121 ID = 773
   0.185824 1  306             Rx   d 8 00 33 01 22 08 03 01 01  Length = 229910 BitCount = 119 ID = 774
   0.186114 1  18E0000Bx       Rx   d 8 00 00 00 00 00 00 01 00  Length = 281911 BitCount = 145 ID = 417333259x
   0.186578 1  303             Rx   d 8 03 03 01 02 00 00 00 00  Length = 239910 BitCount = 124 ID = 771
   0.186821 1  302             Rx   d 8 18 04 1C 00 00 17 32 00  Length = 233911 BitCount = 121 ID = 770
   0.187055 1  304             Rx   d 8 01 30 33 4E 4D 45 30 38  Length = 225910 BitCount = 117 ID = 772
   0.187977 1  201             Rx   d 8 00 00 C8 00 00 00 07 CF  Length = 237911 BitCount = 123 ID = 513
   0.188223 1  202             Rx   d 8 09 01 00 00 00 00 00 0A  Length = 237910 BitCount = 123 ID = 514
   0.188461 1  203             Rx   d 8 81 AE 8F F0 23 FC 04 3F  Length = 229910 BitCount = 119 ID = 515
   0.190399 1  102             Rx   d 8 25 03 1C 00 00 00 00 44  Length = 237910 BitCount = 123 ID = 258
   0.190638 1  103             Rx   d 8 FF FF 2C 04 5A 00 00 88  Length = 229926 BitCount = 119 ID = 259
   0.190886 1  104             Rx   d 8 B2 20 00 00 00 00 00 D2  Length = 239910 BitCount = 124 ID = 260
   0.191134 1  105             Rx   d 8 10 27 00 00 00 00 00 37  Length = 239926 BitCount = 124 ID = 261
   0.191422 1  18E00000x       Rx   d 8 00 03 E7 03 2A 00 C0 0F  Length = 279910 BitCount = 144 ID = 417333248x
   0.191708 1  18E00100x       Rx   d 8 03 20 00 01 01 00 50 01  Length = 277910 BitCount = 143 ID = 417333504x
   0.194998 1  112             Rx   d 8 00 00 3C 37 00 00 00 00  Length = 235910 BitCount = 122 ID = 274
   0.205000 1  113             Rx   d 8 01 01 00 00 00 03 00 00  Length = 237910 BitCount = 123 ID = 275
   0.208698 1  102             Rx   d 8 25 03 1C 00 00 00 00 44  Length = 237911 BitCount = 123 ID = 258
   0.208936 1  103             Rx   d 8 FF FF 2C 04 5A 00 00 88  Length = 229910 BitCount = 119 ID = 259
   0.209185 1  104             Rx   d 8 B2 20 00 00 00 00 00 D2  Length = 239910 BitCount = 124 ID = 260
   0.209433 1  105             Rx   d 8 10 27 00 00 00 00 00 37  Length = 239910 BitCount = 124 ID = 261
   0.209721 1  18E00000x       Rx   d 8 00 03 E7 03 2A 00 C0 0F  Length = 279910 BitCount = 144 ID = 417333248x
   0.210007 1  18E00100x       Rx   d 8 03 20 00 01 01 00 50 01  Length = 277926 BitCount = 143 ID = 417333504x
   0.213969 1  315             Rx   d 8 05 05 03 03 01 00 03 03  Length = 231910 BitCount = 120 ID = 789
   0.228720 1  102             Rx   d 8 25 03 1C 00 00 00 00 44  Length = 237910 BitCount = 123 ID = 258
   0.228958 1  103             Rx   d 8 FF FF 2C 04 5A 00 00 88  Length = 229910 BitCount = 119 ID = 259
   0.229206 1  104             Rx   d 8 B2 20 00 00 00 00 00 D2  Length = 239911 BitCount = 124 ID = 260
   0.229454 1  105             Rx   d 8 10 27 00 00 00 00 00 37  Length = 239926 BitCount = 124 ID = 261
   0.229687 1  317             Rx   d 8 50 35 15 32 33 00 00 00  Length = 223910 BitCount = 116 ID = 791
   0.229975 1  18E00000x       Rx   d 8 00 03 E7 03 28 00 C2 0F  Length = 279926 BitCount = 144 ID = 417333248x
   0.230261 1  18E00100x       Rx   d 8 03 20 00 01 01 00 50 01  Length = 277910 BitCount = 143 ID = 417333504x
   0.242017 1  221             Rx   d 8 00 5A 00 C5 03 00 00 54  Length = 227910 BitCount = 118 ID = 545
   0.248765 1  102             Rx   d 8 25 03 1C 00 00 00 00 44  Length = 237926 BitCount = 123 ID = 258
   0.249003 1  103             Rx   d 8 FF FF 2C 04 5A 00 00 88  Length = 229910 BitCount = 119 ID = 259
   0.249251 1  104             Rx   d 8 B2 20 00 00 00 00 00 D2  Length = 239926 BitCount = 124 ID = 260
   0.249500 1  105             Rx   d 8 10 27 00 00 00 00 00 37  Length = 239910 BitCount = 124 ID = 261
   0.249790 1  18E00000x       Rx   d 8 00 03 E7 03 28 00 C0 0F  Length = 281926 BitCount = 145 ID = 417333248x
   0.250076 1  18E00100x       Rx   d 8 03 20 00 01 01 00 50 01  Length = 277910 BitCount = 143 ID = 417333504x
   0.268815 1  102             Rx   d 8 25 03 1C 00 00 00 00 44  Length = 237910 BitCount = 123 ID = 258
   0.269053 1  103             Rx   d 8 FF FF 2C 04 5A 00 00 88  Length = 229910 BitCount = 119 ID = 259
   0.269301 1  104             Rx   d 8 B2 20 00 00 00 00 00 D2  Length = 239910 BitCount = 124 ID = 260
   0.269550 1  105             Rx   d 8 10 27 00 00 00 00 00 37  Length = 239911 BitCount = 124 ID = 261
   0.269840 1  18E00000x       Rx   d 8 00 03 E7 03 28 00 C0 0F  Length = 281910 BitCount = 145 ID = 417333248x
   0.270126 1  18E00100x       Rx   d 8 03 20 00 01 01 00 50 01  Length = 277926 BitCount = 143 ID = 417333504x
   0.285979 1  311             Rx   d 8 02 00 00 00 50 00 CB 02  Length = 233910 BitCount = 121 ID = 785
   0.288206 1  204             Rx   d 8 22 FF FF FF FF FF FF FF  Length = 241911 BitCount = 125 ID = 516
   0.288442 1  205             Rx   d 8 C5 0F 12 AE 0F 05 00 00  Length = 227910 BitCount = 118 ID = 517
   0.288684 1  206             Rx   d 8 38 04 37 02 00 00 00 00  Length = 233910 BitCount = 121 ID = 518
   0.293758 1  102             Rx   d 8 25 03 1C 00 00 00 00 44  Length = 237910 BitCount = 123 ID = 258
   0.293996 1  103             Rx   d 8 FF FF 2C 04 5A 00 00 88  Length = 229926 BitCount = 119 ID = 259
   0.294245 1  104             Rx   d 8 B2 20 00 00 00 00 00 D2  Length = 239910 BitCount = 124 ID = 260
   0.294493 1  105             Rx   d 8 10 27 00 00 00 00 00 37  Length = 239926 BitCount = 124 ID = 261
   0.294781 1  18E00000x       Rx   d 8 00 03 E7 03 2A 00 C0 0F  Length = 279910 BitCount = 144 ID = 417333248x
   0.295067 1  18E00100x       Rx   d 8 03 20 00 01 01 00 50 01  Length = 277926 BitCount = 143 ID = 417333504x
   0.295981 1  112             Rx   d 8 00 00 3C 37 00 00 00 00  Length = 235926 BitCount = 122 ID = 274
   0.305989 1  113             Rx   d 8 01 01 00 00 00 03 00 00  Length = 237910 BitCount = 123 ID = 275
   0.308903 1  102             Rx   d 8 25 03 1C 00 00 00 00 44  Length = 237926 BitCount = 123 ID = 258
   0.309141 1  103             Rx   d 8 FF FF 2C 04 5A 00 00 88  Length = 229911 BitCount = 119 ID = 259
   0.309389 1  104             Rx   d 8 B2 20 00 00 00 00 00 D2  Length = 239926 BitCount = 124 ID = 260
   0.309638 1  105             Rx   d 8 10 27 00 00 00 00 00 37  Length = 239910 BitCount = 124 ID = 261
   0.309928 1  18E00000x       Rx   d 8 00 03 E7 03 28 00 C0 0F  Length = 281926 BitCount = 145 ID = 417333248x
   0.310214 1  18E00100x       Rx   d 8 03 20 00 01 01 00 50 01  Length = 277910 BitCount = 143 ID = 417333504x
   0.328961 1  102             Rx   d 8 25 03 1C 00 00 00 00 44  Length = 237910 BitCount = 123 ID = 258
   0.329199 1  103             Rx   d 8 FF FF 2C 04 5A 00 00 88  Length = 229911 BitCount = 119 ID = 259
   0.329447 1  104             Rx   d 8 B2 20 00 00 00 00 00 D2  Length = 239910 BitCount = 124 ID = 260
   0.329696 1  105             Rx   d 8 10 27 00 00 00 00 00 37  Length = 239910 BitCount = 124 ID = 261
   0.329980 1  18E00000x       Rx   d 8 00 03 E7 03 28 00 CD 0F  Length = 275911 BitCount = 142 ID = 417333248x
   0.330266 1  18E00100x       Rx   d 8 03 20 00 01 01 00 50 01  Length = 277926 BitCount = 143 ID = 417333504x
   0.341866 1  221             Rx   d 8 00 5A 00 C5 03 00 00 54  Length = 227926 BitCount = 118 ID = 545
   0.349008 1  102             Rx   d 8 25 03 1C 00 00 00 00 44  Length = 237911 BitCount = 123 ID = 258
   0.349246 1  103             Rx   d 8 FF FF 2C 04 5A 00 00 88  Length = 229910 BitCount = 119 ID = 259
   0.349494 1  104             Rx   d 8 B2 20 00 00 00 00 00 D2  Length = 239910 BitCount = 124 ID = 260
   0.349743 1  105             Rx   d 8 10 27 00 00 00 00 00 37  Length = 239911 BitCount = 124 ID = 261
   0.350027 1  18E00000x       Rx   d 8 00 03 E7 03 28 00 C7 0F  Length = 275910 BitCount = 142 ID = 417333248x
   0.350313 1  18E00100x       Rx   d 8 03 20 00 01 01 00 50 01  Length = 277910 BitCount = 143 ID = 417333504x
   0.369062 1  102             Rx   d 8 25 03 1C 00 00 00 00 44  Length = 237926 BitCount = 123 ID = 258
   0.369300 1  103             Rx   d 8 FF FF 2C 04 5A 00 00 88  Length = 229910 BitCount = 119 ID = 259
   0.369548 1  104             Rx   d 8 B2 20 00 00 00 00 00 D2  Length = 239926 BitCount = 124 ID = 260
   0.369797 1  105             Rx   d 8 10 27 00 00 00 00 00 37  Length = 239910 BitCount = 124 ID = 261
   0.370087 1  18E00000x       Rx   d 8 00 03 E7 03 28 00 C0 0F  Length = 281926 BitCount = 145 ID = 417333248x
   0.370373 1  18E00100x       Rx   d 8 03 20 00 01 01 00 50 01  Length = 277910 BitCount = 143 ID = 417333504x
   0.386976 1  311             Rx   d 8 02 00 00 00 50 00 CB 02  Length = 233926 BitCount = 121 ID = 785
   0.387218 1  302             Rx   d 8 18 04 1C 00 00 17 33 00  Length = 233910 BitCount = 121 ID = 770
   0.387467 1  303             Rx   d 8 03 03 01 02 00 00 00 00  Length = 239926 BitCount = 124 ID = 771
   0.387699 1  304             Rx   d 8 02 54 51 4C 30 30 31 47  Length = 223910 BitCount = 116 ID = 772
   0.388439 1  201             Rx   d 8 00 00 C8 00 00 00 07 CF  Length = 237926 BitCount = 123 ID = 513
   0.388685 1  202             Rx   d 8 09 01 00 00 00 00 00 0A  Length = 237911 BitCount = 123 ID = 514
   0.388919 1  203             Rx   d 8 82 C3 CF F0 F3 FA E0 3E  Length = 225926 BitCount = 117 ID = 515
   0.391503 1  102             Rx   d 8 25 03 1C 00 00 00 00 44  Length = 237911 BitCount = 123 ID = 258
   0.391742 1  103             Rx   d 8 FF FF 2C 04 5A 00 00 88  Length = 229910 BitCount = 119 ID = 259
   0.391990 1  104             Rx   d 8 B2 20 00 00 00 00 00 D2  Length = 239910 BitCount = 124 ID = 260
   0.392238 1  105             Rx   d 8 10 27 00 00 00 00 00 37  Length = 239910 BitCount = 124 ID = 261
   0.392526 1  18E00000x       Rx   d 8 00 03 E7 03 28 00 C2 0F  Length = 279910 BitCount = 144 ID = 417333248x
   0.392812 1  18E00100x       Rx   d 8 03 20 00 01 01 00 50 01  Length = 277911 BitCount = 143 ID = 417333504x
   0.396976 1  112             Rx   d 8 00 00 3C 37 00 00 00 00  Length = 235910 BitCount = 122 ID = 274
   0.406982 1  113             Rx   d 8 01 01 00 00 00 03 00 00  Length = 237910 BitCount = 123 ID = 275
   0.409134 1  102             Rx   d 8 25 03 1C 00 00 00 00 44  Length = 237910 BitCount = 123 ID = 258
   0.409372 1  103             Rx   d 8 FF FF 2C 04 5A 00 00 88  Length = 229911 BitCount = 119 ID = 259
   0.409620 1  104             Rx   d 8 B2 20 00 00 00 00 00 D2  Length = 239910 BitCount = 124 ID = 260
   0.409869 1  105             Rx   d 8 10 27 00 00 00 00 00 37  Length = 239910 BitCount = 124 ID = 261
   0.410159 1  18E00000x       Rx   d 8 00 03 E7 03 28 00 C0 0F  Length = 281910 BitCount = 145 ID = 417333248x
   0.410445 1  18E00100x       Rx   d 8 03 20 00 01 01 00 50 01  Length = 277910 BitCount = 143 ID = 417333504x
   0.414971 1  315             Rx   d 8 05 05 03 03 01 00 03 03  Length = 231926 BitCount = 120 ID = 789
   0.429006 1  318             Rx   d 8 02 00 00 00 00 00 00 00  Length = 239926 BitCount = 124 ID = 792
   0.429252 1  102             Rx   d 8 25 03 1C 00 00 00 00 44  Length = 237911 BitCount = 123 ID = 258
   0.429491 1  103             Rx   d 8 FF FF 2C 04 5A 00 00 88  Length = 229910 BitCount = 119 ID = 259
   0.429739 1  104             Rx   d 8 B2 20 00 00 00 00 00 D2  Length = 239910 BitCount = 124 ID = 260
   0.429987 1  105             Rx   d 8 10 27 00 00 00 00 00 37  Length = 239910 BitCount = 124 ID = 261
   0.430277 1  18E00000x       Rx   d 8 00 03 E7 03 28 00 C0 0F  Length = 281910 BitCount = 145 ID = 417333248x
   0.430563 1  18E00100x       Rx   d 8 03 20 00 01 01 00 50 01  Length = 277911 BitCount = 143 ID = 417333504x
   0.441869 1  221             Rx   d 8 00 5A 00 C5 03 00 00 54  Length = 227910 BitCount = 118 ID = 545
   0.449251 1  102             Rx   d 8 25 03 1C 00 00 00 00 44  Length = 237911 BitCount = 123 ID = 258
   0.449490 1  103             Rx   d 8 FF FF 2C 04 5A 00 00 88  Length = 229926 BitCount = 119 ID = 259
   0.449738 1  104             Rx   d 8 B2 20 00 00 00 00 00 D2  Length = 239910 BitCount = 124 ID = 260
   0.449986 1  105             Rx   d 8 10 27 00 00 00 00 00 37  Length = 239910 BitCount = 124 ID = 261
   0.450274 1  18E00000x       Rx   d 8 00 03 E7 03 2A 00 C0 0F  Length = 279910 BitCount = 144 ID = 417333248x
   0.450560 1  18E00100x       Rx   d 8 03 20 00 01 01 00 50 01  Length = 277926 BitCount = 143 ID = 417333504x
   0.469297 1  102             Rx   d 8 25 03 1C 00 00 00 00 44  Length = 237910 BitCount = 123 ID = 258
   0.469536 1  103             Rx   d 8 FF FF 2C 04 5A 00 00 88  Length = 229910 BitCount = 119 ID = 259
   0.469784 1  104             Rx   d 8 B2 20 00 00 00 00 00 D2  Length = 239910 BitCount = 124 ID = 260
   0.470032 1  105             Rx   d 8 10 27 00 00 00 00 00 37  Length = 239910 BitCount = 124 ID = 261
   0.470320 1  18E00000x       Rx   d 8 00 03 E7 03 28 00 C2 0F  Length = 279911 BitCount = 144 ID = 417333248x
   0.470606 1  18E00100x       Rx   d 8 03 20 00 01 01 00 50 01  Length = 277910 BitCount = 143 ID = 417333504x
   0.487960 1  311             Rx   d 8 02 00 00 00 50 00 CB 02  Length = 233910 BitCount = 121 ID = 785
   0.488670 1  204             Rx   d 8 E0 38 37 38 38 FF FF FF  Length = 231910 BitCount = 120 ID = 516
   0.488906 1  205             Rx   d 8 C5 0F 12 AE 0F 05 00 00  Length = 227911 BitCount = 118 ID = 517
   0.489152 1  206             Rx   d 8 38 01 37 02 00 00 00 00  Length = 237910 BitCount = 123 ID = 518
   0.494206 1  102             Rx   d 8 25 03 1C 00 00 00 00 44  Length = 237911 BitCount = 123 ID = 258
   0.494445 1  103             Rx   d 8 FF FF 2C 04 5A 00 00 88  Length = 229910 BitCount = 119 ID = 259
   0.494693 1  104             Rx   d 8 B2 20 00 00 00 00 00 D2  Length = 239910 BitCount = 124 ID = 260
   0.494941 1  105             Rx   d 8 10 27 00 00 00 00 00 37  Length = 239911 BitCount = 124 ID = 261
   0.495229 1  18E00000x       Rx   d 8 00 03 E7 03 28 00 C2 0F  Length = 279910 BitCount = 144 ID = 417333248x
   0.495515 1  18E00100x       Rx   d 8 03 20 00 01 01 00 50 01  Length = 277910 BitCount = 143 ID = 417333504x
   0.497961 1  112             Rx   d 8 00 00 3C 37 00 00 00 00  Length = 235910 BitCount = 122 ID = 274
   0.507983 1  113             Rx   d 8 01 01 00 00 00 03 00 00  Length = 237926 BitCount = 123 ID = 275
   0.509363 1  102             Rx   d 8 25 03 1C 00 00 00 00 44  Length = 237910 BitCount = 123 ID = 258
   0.509601 1  103             Rx   d 8 FF FF 2C 04 5A 00 00 88  Length = 229910 BitCount = 119 ID = 259
   0.509849 1  104             Rx   d 8 B2 20 00 00 00 00 00 D2  Length = 239910 BitCount = 124 ID = 260
   0.510098 1  105             Rx   d 8 10 27 00 00 00 00 00 37  Length = 239911 BitCount = 124 ID = 261
   0.510388 1  18E00000x       Rx   d 8 00 03 E7 03 28 00 C0 0F  Length = 281910 BitCount = 145 ID = 417333248x
   0.510674 1  18E00100x       Rx   d 8 03 20 00 01 01 00 50 01  Length = 277926 BitCount = 143 ID = 417333504x
   0.529429 1  102             Rx   d 8 25 03 1C 00 00 00 00 44  Length = 237910 BitCount = 123 ID = 258
   0.529667 1  103             Rx   d 8 FF FF 2C 04 5A 00 00 88  Length = 229910 BitCount = 119 ID = 259
   0.529915 1  104             Rx   d 8 B2 20 00 00 00 00 00 D2  Length = 239911 BitCount = 124 ID = 260
   0.530164 1  105             Rx   d 8 10 27 00 00 00 00 00 37  Length = 239910 BitCount = 124 ID = 261
   0.530452 1  18E00000x       Rx   d 8 00 03 E7 03 28 00 C2 0F  Length = 279910 BitCount = 144 ID = 417333248x
   0.530738 1  18E00100x       Rx   d 8 03 20 00 01 01 00 50 01  Length = 277911 BitCount = 143 ID = 417333504x
   0.541853 1  221             Rx   d 8 00 5A 00 C5 03 00 00 54  Length = 227910 BitCount = 118 ID = 545
   0.549478 1  102             Rx   d 8 25 03 1C 00 00 00 00 44  Length = 237926 BitCount = 123 ID = 258
   0.549716 1  103             Rx   d 8 FF FF 2C 04 5A 00 00 88  Length = 229911 BitCount = 119 ID = 259
   0.549964 1  104             Rx   d 8 B2 20 00 00 00 00 00 D2  Length = 239926 BitCount = 124 ID = 260
   0.550212 1  105             Rx   d 8 10 27 00 00 00 00 00 37  Length = 239910 BitCount = 124 ID = 261
   0.550499 1  18E00000x       Rx   d 8 00 03 E7 03 14 00 C5 0F  Length = 277926 BitCount = 143 ID = 417333248x
   0.550785 1  18E00100x       Rx   d 8 03 20 00 01 01 00 50 01  Length = 277910 BitCount = 143 ID = 417333504x
   0.556957 1  313             Rx   d 8 44 30 38 41 31 31 30 36  Length = 219926 BitCount = 114 ID = 787
   0.569526 1  102             Rx   d 8 25 03 1C 00 00 00 00 44  Length = 237910 BitCount = 123 ID = 258
   0.569764 1  103             Rx   d 8 FF FF 2C 04 5A 00 00 88  Length = 229911 BitCount = 119 ID = 259
   0.570012 1  104             Rx   d 8 B2 20 00 00 00 00 00 D2  Length = 239910 BitCount = 124 ID = 260
   0.570260 1  105             Rx   d 8 10 27 00 00 00 00 00 37  Length = 239926 BitCount = 124 ID = 261
   0.570550 1  18E00000x       Rx   d 8 00 03 E7 03 28 00 C0 0F  Length = 281911 BitCount = 145 ID = 417333248x
   0.570836 1  18E00100x       Rx   d 8 03 20 00 01 01 00 50 01  Length = 277926 BitCount = 143 ID = 417333504x
   0.587499 1  303             Rx   d 8 03 03 01 02 00 00 00 00  Length = 239911 BitCount = 124 ID = 771
   0.587742 1  302             Rx   d 8 18 04 1C 00 00 17 33 00  Length = 233926 BitCount = 121 ID = 770
   0.587978 1  304             Rx   d 8 03 44 35 4E 30 30 30 30  Length = 227910 BitCount = 118 ID = 772
   0.588898 1  201             Rx   d 8 00 00 C8 00 00 00 07 CF  Length = 237910 BitCount = 123 ID = 513
   0.589144 1  202             Rx   d 8 09 01 00 00 00 00 00 0A  Length = 237910 BitCount = 123 ID = 514
   0.589380 1  203             Rx   d 8 83 B4 4F EC 43 FB 10 3F  Length = 227926 BitCount = 118 ID = 515
   0.589622 1  311             Rx   d 8 02 00 00 00 50 00 CB 02  Length = 233910 BitCount = 121 ID = 785
   0.592008 1  102             Rx   d 8 25 03 1C 00 00 00 00 44  Length = 237910 BitCount = 123 ID = 258
   0.592247 1  103             Rx   d 8 FF FF 2C 04 5A 00 00 88  Length = 229911 BitCount = 119 ID = 259
   0.592495 1  104             Rx   d 8 B2 20 00 00 00 00 00 D2  Length = 239910 BitCount = 124 ID = 260
   0.592743 1  105             Rx   d 8 10 27 00 00 00 00 00 37  Length = 239910 BitCount = 124 ID = 261
   0.593031 1  18E00000x       Rx   d 8 00 03 E7 03 2A 00 C2 0F  Length = 279910 BitCount = 144 ID = 417333248x
   0.593317 1  18E00100x       Rx   d 8 03 20 00 01 01 00 50 01  Length = 277910 BitCount = 143 ID = 417333504x
   0.598983 1  112             Rx   d 8 00 00 3C 37 00 00 00 00  Length = 235926 BitCount = 122 ID = 274
   0.608989 1  113             Rx   d 8 01 01 00 00 00 03 00 00  Length = 237911 BitCount = 123 ID = 275
   0.609593 1  102             Rx   d 8 25 03 1C 00 00 00 00 44  Length = 237926 BitCount = 123 ID = 258
   0.609831 1  103             Rx   d 8 FF FF 2C 04 5A 00 00 88  Length = 229910 BitCount = 119 ID = 259
   0.610079 1  104             Rx   d 8 B2 20 00 00 00 00 00 D2  Length = 239926 BitCount = 124 ID = 260
   0.610327 1  105             Rx   d 8 10 27 00 00 00 00 00 37  Length = 239910 BitCount = 124 ID = 261
   0.610616 1  18E00000x       Rx   d 8 00 03 E7 03 28 00 C2 0F  Length = 279926 BitCount = 144 ID = 417333248x
   0.610902 1  18E00100x       Rx   d 8 03 20 00 01 01 00 50 01  Length = 277910 BitCount = 143 ID = 417333504x
   0.615968 1  315             Rx   d 8 05 05 03 03 01 00 03 03  Length = 231911 BitCount = 120 ID = 789
   0.629650 1  102             Rx   d 8 25 03 1C 00 00 00 00 44  Length = 237910 BitCount = 123 ID = 258
   0.629889 1  103             Rx   d 8 FF FF 2C 04 5A 00 00 88  Length = 229910 BitCount = 119 ID = 259
   0.630137 1  104             Rx   d 8 B2 20 00 00 00 00 00 D2  Length = 239911 BitCount = 124 ID = 260
   0.630385 1  105             Rx   d 8 10 27 00 00 00 00 00 37  Length = 239910 BitCount = 124 ID = 261
   0.630675 1  18E00000x       Rx   d 8 00 03 E7 03 28 00 C0 0F  Length = 281910 BitCount = 145 ID = 417333248x
   0.630961 1  18E00100x       Rx   d 8 03 20 00 01 01 00 50 01  Length = 277926 BitCount = 143 ID = 417333504x
   0.641831 1  221             Rx   d 8 00 5A 00 C5 03 00 00 54  Length = 227926 BitCount = 118 ID = 545
   0.649697 1  102             Rx   d 8 25 03 1C 00 00 00 00 44  Length = 237910 BitCount = 123 ID = 258
   0.649935 1  103             Rx   d 8 FF FF 2C 04 5A 00 00 88  Length = 229911 BitCount = 119 ID = 259
   0.650184 1  104             Rx   d 8 B2 20 00 00 00 00 00 D2  Length = 239910 BitCount = 124 ID = 260
   0.650432 1  105             Rx   d 8 10 27 00 00 00 00 00 37  Length = 239910 BitCount = 124 ID = 261
   0.650722 1  18E00000x       Rx   d 8 00 03 E7 03 28 00 C0 0F  Length = 281910 BitCount = 145 ID = 417333248x
   0.651008 1  18E00100x       Rx   d 8 03 20 00 01 01 00 50 01  Length = 277910 BitCount = 143 ID = 417333504x
   0.669731 1  102             Rx   d 8 25 03 1C 00 00 00 00 44  Length = 237926 BitCount = 123 ID = 258
   0.669969 1  103             Rx   d 8 FF FF 2C 04 5A 00 00 88  Length = 229910 BitCount = 119 ID = 259
   0.670218 1  104             Rx   d 8 B2 20 00 00 00 00 00 D2  Length = 239926 BitCount = 124 ID = 260
   0.670466 1  105             Rx   d 8 10 27 00 00 00 00 00 37  Length = 239910 BitCount = 124 ID = 261
   0.670754 1  18E00000x       Rx   d 8 00 03 E7 03 2A 00 C0 0F  Length = 279926 BitCount = 144 ID = 417333248x
   0.671040 1  18E00100x       Rx   d 8 03 20 00 01 01 00 50 01  Length = 277911 BitCount = 143 ID = 417333504x
   0.686735 1  305             Rx   d 8 00 33 01 22 08 02 02 00  Length = 233910 BitCount = 121 ID = 773
   0.686973 1  306             Rx   d 8 00 33 01 22 08 03 01 01  Length = 229911 BitCount = 119 ID = 774
   0.687263 1  18E0000Bx       Rx   d 8 00 00 00 00 00 00 01 00  Length = 281910 BitCount = 145 ID = 417333259x
   0.689122 1  204             Rx   d 8 E1 FF 39 39 39 3B 41 FF  Length = 225926 BitCount = 117 ID = 516
   0.689358 1  205             Rx   d 8 C5 0F 12 AE 0F 05 00 00  Length = 227910 BitCount = 118 ID = 517
   0.689604 1  206             Rx   d 8 38 01 37 02 00 00 00 00  Length = 237926 BitCount = 123 ID = 518
   0.690002 1  311             Rx   d 8 02 00 00 00 50 00 CB 02  Length = 233926 BitCount = 121 ID = 785
   0.694686 1  102             Rx   d 8 25 03 1C 00 00 00 00 44  Length = 237910 BitCount = 123 ID = 258
   0.694925 1  103             Rx   d 8 FF FF 2C 04 5A 00 00 88  Length = 229911 BitCount = 119 ID = 259
   0.695173 1  104             Rx   d 8 B2 20 00 00 00 00 00 D2  Length = 239910 BitCount = 124 ID = 260
   0.695421 1  105             Rx   d 8 10 27 00 00 00 00 00 37  Length = 239910 BitCount = 124 ID = 261
   0.695709 1  18E00000x       Rx   d 8 00 03 E7 03 2A 00 C2 0F  Length = 279911 BitCount = 144 ID = 417333248x
   0.695995 1  18E00100x       Rx   d 8 03 20 00 01 01 00 50 01  Length = 277910 BitCount = 143 ID = 417333504x
   0.699969 1  112             Rx   d 8 00 00 3C 37 00 00 00 00  Length = 235911 BitCount = 122 ID = 274
   0.709850 1  102             Rx   d 8 25 03 1C 00 00 00 00 44  Length = 237910 BitCount = 123 ID = 258
   0.710088 1  103             Rx   d 8 FF FF 2C 04 5A 00 00 88  Length = 229910 BitCount = 119 ID = 259
   0.710336 1  104             Rx   d 8 B2 20 00 00 00 00 00 D2  Length = 239911 BitCount = 124 ID = 260
   0.710584 1  105             Rx   d 8 10 27 00 00 00 00 00 37  Length = 240153 BitCount = 124 ID = 261
   0.710830 1  113             Rx   d 8 01 01 00 00 00 03 00 00  Length = 237910 BitCount = 123 ID = 275
   0.711120 1  18E00000x       Rx   d 8 00 03 E7 03 28 00 C0 0F  Length = 281910 BitCount = 145 ID = 417333248x
   0.711407 1  18E00100x       Rx   d 8 03 20 00 01 01 00 50 01  Length = 277910 BitCount = 143 ID = 417333504x
   0.729894 1  102             Rx   d 8 25 03 1C 00 00 00 00 44  Length = 237926 BitCount = 123 ID = 258
   0.730132 1  103             Rx   d 8 FF FF 2C 04 5A 00 00 88  Length = 229911 BitCount = 119 ID = 259
   0.730380 1  104             Rx   d 8 B2 20 00 00 00 00 00 D2  Length = 239926 BitCount = 124 ID = 260
   0.730628 1  105             Rx   d 8 10 27 00 00 00 00 00 37  Length = 239910 BitCount = 124 ID = 261
   0.730860 1  317             Rx   d 8 50 35 15 32 33 00 00 00  Length = 223910 BitCount = 116 ID = 791
   0.731150 1  18E00000x       Rx   d 8 00 03 E7 03 28 00 C0 0F  Length = 281910 BitCount = 145 ID = 417333248x
   0.731437 1  18E00100x       Rx   d 8 03 20 00 01 01 00 50 01  Length = 277911 BitCount = 143 ID = 417333504x
   0.749144 1  221             Rx   d 8 00 5A 00 C5 03 00 00 54  Length = 227926 BitCount = 118 ID = 545
   0.749942 1  102             Rx   d 8 25 03 1C 00 00 00 00 44  Length = 237910 BitCount = 123 ID = 258
   0.750180 1  103             Rx   d 8 FF FF 2C 04 5A 00 00 88  Length = 229926 BitCount = 119 ID = 259
   0.750428 1  104             Rx   d 8 B2 20 00 00 00 00 00 D2  Length = 239910 BitCount = 124 ID = 260
   0.750677 1  105             Rx   d 8 10 27 00 00 00 00 00 37  Length = 239926 BitCount = 124 ID = 261
   0.750965 1  18E00000x       Rx   d 8 00 03 E7 03 28 00 C2 0F  Length = 279910 BitCount = 144 ID = 417333248x
   0.751251 1  18E00100x       Rx   d 8 03 20 00 01 01 00 50 01  Length = 277926 BitCount = 143 ID = 417333504x
   0.769976 1  102             Rx   d 8 25 03 1C 00 00 00 00 44  Length = 237910 BitCount = 123 ID = 258
   0.770214 1  103             Rx   d 8 FF FF 2C 04 5A 00 00 88  Length = 229910 BitCount = 119 ID = 259
   0.770462 1  104             Rx   d 8 B2 20 00 00 00 00 00 D2  Length = 239911 BitCount = 124 ID = 260
   0.770711 1  105             Rx   d 8 10 27 00 00 00 00 00 37  Length = 239910 BitCount = 124 ID = 261
   0.771001 1  18E00000x       Rx   d 8 00 03 E7 03 28 00 C0 0F  Length = 281910 BitCount = 145 ID = 417333248x
   0.771287 1  18E00100x       Rx   d 8 03 20 00 01 01 00 50 01  Length = 277911 BitCount = 143 ID = 417333504x
   0.787962 1  303             Rx   d 8 03 03 01 02 00 00 00 00  Length = 239926 BitCount = 124 ID = 771
   0.788204 1  302             Rx   d 8 18 04 1C 00 00 17 33 00  Length = 233910 BitCount = 121 ID = 770
   0.788448 1  304             Rx   d 8 04 30 34 33 00 00 00 00  Length = 235926 BitCount = 122 ID = 772
   0.789358 1  201             Rx   d 8 00 00 C8 00 00 00 07 CF  Length = 237910 BitCount = 123 ID = 513
   0.789605 1  202             Rx   d 8 09 01 00 00 00 00 00 0A  Length = 237910 BitCount = 123 ID = 514
   0.789837 1  203             Rx   d 8 84 C4 4F F1 33 FC 0C 3F  Length = 223910 BitCount = 116 ID = 515
   0.790967 1  311             Rx   d 8 02 00 00 00 50 00 CB 02  Length = 233911 BitCount = 121 ID = 785
   0.792431 1  102             Rx   d 8 25 03 1C 00 00 00 00 44  Length = 237926 BitCount = 123 ID = 258
   0.792669 1  103             Rx   d 8 FF FF 2C 04 5A 00 00 88  Length = 229910 BitCount = 119 ID = 259
   0.792917 1  104             Rx   d 8 B2 20 00 00 00 00 00 D2  Length = 239926 BitCount = 124 ID = 260
   0.793165 1  105             Rx   d 8 10 27 00 00 00 00 00 37  Length = 239911 BitCount = 124 ID = 261
   0.793456 1  18E00000x       Rx   d 8 00 03 E7 03 28 00 C0 0F  Length = 281910 BitCount = 145 ID = 417333248x
   0.793742 1  18E00100x       Rx   d 8 03 20 00 01 01 00 50 01  Length = 277910 BitCount = 143 ID = 417333504x
   0.800970 1  112             Rx   d 8 00 00 3C 37 00 00 00 00  Length = 235910 BitCount = 122 ID = 274
   0.810054 1  102             Rx   d 8 25 03 1C 00 00 00 00 44  Length = 237910 BitCount = 123 ID = 258
   0.810292 1  103             Rx   d 8 FE FF 2C 04 5A 00 00 87  Length = 229911 BitCount = 119 ID = 259
   0.810541 1  104             Rx   d 8 B2 20 00 00 00 00 00 D2  Length = 239910 BitCount = 124 ID = 260
   0.810789 1  105             Rx   d 8 10 27 00 00 00 00 00 37  Length = 239910 BitCount = 124 ID = 261
   0.811035 1  113             Rx   d 8 01 01 00 00 00 03 00 00  Length = 237910 BitCount = 123 ID = 275
   0.811325 1  18E00000x       Rx   d 8 00 03 E7 03 28 00 C0 0F  Length = 281910 BitCount = 145 ID = 417333248x
   0.811611 1  18E00100x       Rx   d 8 03 20 00 01 01 00 50 01  Length = 277910 BitCount = 143 ID = 417333504x
   0.816963 1  315             Rx   d 8 05 05 03 03 01 00 03 03  Length = 231910 BitCount = 120 ID = 789
   0.830128 1  102             Rx   d 8 25 03 1C 00 00 00 00 44  Length = 237911 BitCount = 123 ID = 258
   0.830366 1  103             Rx   d 8 FE FF 2C 04 5A 00 00 87  Length = 229910 BitCount = 119 ID = 259
   0.830614 1  104             Rx   d 8 B2 20 00 00 00 00 00 D2  Length = 239910 BitCount = 124 ID = 260
   0.830862 1  105             Rx   d 8 10 27 00 00 00 00 00 37  Length = 239911 BitCount = 124 ID = 261
   0.831150 1  18E00000x       Rx   d 8 00 03 E7 03 2A 00 C0 0F  Length = 279910 BitCount = 144 ID = 417333248x
   0.831437 1  18E00100x       Rx   d 8 03 20 00 01 01 00 50 01  Length = 277910 BitCount = 143 ID = 417333504x
   0.841824 1  221             Rx   d 8 00 5A 00 C5 03 00 00 54  Length = 227910 BitCount = 118 ID = 545
   0.850175 1  102             Rx   d 8 25 03 1C 00 00 00 00 44  Length = 237910 BitCount = 123 ID = 258
   0.850413 1  103             Rx   d 8 FE FF 2C 04 5A 00 00 87  Length = 229910 BitCount = 119 ID = 259
   0.850661 1  104             Rx   d 8 B2 20 00 00 00 00 00 D2  Length = 239911 BitCount = 124 ID = 260
   0.850909 1  105             Rx   d 8 10 27 00 00 00 00 00 37  Length = 239910 BitCount = 124 ID = 261
   0.851197 1  18E00000x       Rx   d 8 00 03 E7 03 28 00 C2 0F  Length = 279926 BitCount = 144 ID = 417333248x
   0.851483 1  18E00100x       Rx   d 8 03 20 00 01 01 00 50 01  Length = 277910 BitCount = 143 ID = 417333504x
   0.870203 1  102             Rx   d 8 25 03 1C 00 00 00 00 44  Length = 237910 BitCount = 123 ID = 258
   0.870441 1  103             Rx   d 8 FE FF 2C 04 5A 00 00 87  Length = 229926 BitCount = 119 ID = 259
   0.870689 1  104             Rx   d 8 B2 20 00 00 00 00 00 D2  Length = 239911 BitCount = 124 ID = 260
   0.870937 1  105             Rx   d 8 10 27 00 00 00 00 00 37  Length = 239910 BitCount = 124 ID = 261
   0.871223 1  18E00000x       Rx   d 8 00 03 E7 03 28 00 C9 0F  Length = 277910 BitCount = 143 ID = 417333248x
   0.871509 1  18E00100x       Rx   d 8 03 20 00 01 01 00 50 01  Length = 277926 BitCount = 143 ID = 417333504x
   0.889589 1  204             Rx   d 8 22 FF FF FF FF FF FF FF  Length = 241910 BitCount = 125 ID = 516
   0.889825 1  205             Rx   d 8 C5 0F 12 AE 0F 05 00 00  Length = 227926 BitCount = 118 ID = 517
   0.890071 1  206             Rx   d 8 38 01 37 02 00 00 00 00  Length = 237910 BitCount = 123 ID = 518
   0.891961 1  311             Rx   d 8 02 00 00 00 50 00 CB 02  Length = 233910 BitCount = 121 ID = 785
   0.895139 1  102             Rx   d 8 25 03 1C 00 00 00 00 44  Length = 237910 BitCount = 123 ID = 258
   0.895377 1  103             Rx   d 8 FE FF 2C 04 5A 00 00 87  Length = 229926 BitCount = 119 ID = 259
   0.895626 1  104             Rx   d 8 B2 20 00 00 00 00 00 D2  Length = 239911 BitCount = 124 ID = 260
   0.895874 1  105             Rx   d 8 10 27 00 00 00 00 00 37  Length = 239926 BitCount = 124 ID = 261
   0.896162 1  18E00000x       Rx   d 8 00 03 E7 03 28 00 C2 0F  Length = 279910 BitCount = 144 ID = 417333248x
   0.896448 1  18E00100x       Rx   d 8 03 20 00 01 01 00 50 01  Length = 277911 BitCount = 143 ID = 417333504x
   0.901964 1  112             Rx   d 8 00 00 3C 37 00 00 00 00  Length = 235926 BitCount = 122 ID = 274
   0.910298 1  102             Rx   d 8 25 03 1C 00 00 00 00 44  Length = 237926 BitCount = 123 ID = 258
   0.910537 1  103             Rx   d 8 FE FF 2C 04 5A 00 00 87  Length = 229910 BitCount = 119 ID = 259
   0.910785 1  104             Rx   d 8 B2 20 00 00 00 00 00 D2  Length = 239926 BitCount = 124 ID = 260
   0.911033 1  105             Rx   d 8 10 27 00 00 00 00 00 37  Length = 239910 BitCount = 124 ID = 261
   0.911323 1  18E00000x       Rx   d 8 00 03 E7 03 28 00 C0 0F  Length = 281926 BitCount = 145 ID = 417333248x
   0.911609 1  18E00100x       Rx   d 8 03 20 00 01 01 00 50 01  Length = 277911 BitCount = 143 ID = 417333504x
   0.911973 1  113             Rx   d 8 01 01 00 00 00 03 00 00  Length = 237910 BitCount = 123 ID = 275
   0.929971 1  318             Rx   d 8 03 00 00 00 00 00 00 00  Length = 239926 BitCount = 124 ID = 792
   0.930357 1  102             Rx   d 8 25 03 1C 00 00 00 00 44  Length = 237911 BitCount = 123 ID = 258
   0.930595 1  103             Rx   d 8 FE FF 2C 04 5A 00 00 87  Length = 229926 BitCount = 119 ID = 259
   0.930843 1  104             Rx   d 8 B2 20 00 00 00 00 00 D2  Length = 239910 BitCount = 124 ID = 260
   0.931091 1  105             Rx   d 8 10 27 00 00 00 00 00 37  Length = 239926 BitCount = 124 ID = 261
   0.931377 1  18E00000x       Rx   d 8 00 03 E7 03 28 00 C9 0F  Length = 277910 BitCount = 143 ID = 417333248x
   0.931664 1  18E00100x       Rx   d 8 03 20 00 01 01 00 50 01  Length = 277926 BitCount = 143 ID = 417333504x
   0.941819 1  221             Rx   d 8 00 5A 00 C5 03 00 00 54  Length = 227910 BitCount = 118 ID = 545
   0.950404 1  102             Rx   d 8 25 03 1C 00 00 00 00 44  Length = 237910 BitCount = 123 ID = 258
   0.950642 1  103             Rx   d 8 FE FF 2C 04 5A 00 00 87  Length = 229910 BitCount = 119 ID = 259
   0.950890 1  104             Rx   d 8 B2 20 00 00 00 00 00 D2  Length = 239910 BitCount = 124 ID = 260
   0.951138 1  105             Rx   d 8 10 27 00 00 00 00 00 37  Length = 239910 BitCount = 124 ID = 261
   0.951429 1  18E00000x       Rx   d 8 00 03 E7 03 28 00 C0 0F  Length = 281911 BitCount = 145 ID = 417333248x
   0.951715 1  18E00100x       Rx   d 8 03 20 00 01 01 00 50 01  Length = 277910 BitCount = 143 ID = 417333504x
   0.970448 1  102             Rx   d 8 25 03 1C 00 00 00 00 44  Length = 237910 BitCount = 123 ID = 258
   0.970686 1  103             Rx   d 8 FE FF 2C 04 5A 00 00 87  Length = 229910 BitCount = 119 ID = 259
   0.970934 1  104             Rx   d 8 B2 20 00 00 00 00 00 D2  Length = 239926 BitCount = 124 ID = 260
   0.971182 1  105             Rx   d 8 10 27 00 00 00 00 00 37  Length = 239911 BitCount = 124 ID = 261
   0.971473 1  18E00000x       Rx   d 8 00 03 E7 03 28 00 C0 0F  Length = 281926 BitCount = 145 ID = 417333248x
   0.971759 1  18E00100x       Rx   d 8 03 20 00 01 01 00 50 01  Length = 277910 BitCount = 143 ID = 417333504x
   0.988424 1  303             Rx   d 8 03 03 01 02 00 00 00 00  Length = 239910 BitCount = 124 ID = 771
   0.988666 1  302             Rx   d 8 18 04 1C 00 00 17 33 00  Length = 233910 BitCount = 121 ID = 770
   0.988916 1  304             Rx   d 8 05 00 00 00 00 00 00 00  Length = 241910 BitCount = 125 ID = 772
   0.989822 1  201             Rx   d 8 00 00 C8 00 00 00 07 CF  Length = 237911 BitCount = 123 ID = 513
   0.990068 1  202             Rx   d 8 09 01 00 00 00 00 00 0A  Length = 237910 BitCount = 123 ID = 514
   0.990309 1  203             Rx   d 8 80 B0 4F EC 13 FB C0 3E  Length = 231910 BitCount = 120 ID = 515
   0.992931 1  102             Rx   d 8 25 03 1C 00 00 00 00 44  Length = 237910 BitCount = 123 ID = 258
   0.993169 1  103             Rx   d 8 FE FF 2C 04 5A 00 00 87  Length = 229910 BitCount = 119 ID = 259
   0.993417 1  104             Rx   d 8 B2 20 00 00 00 00 00 D2  Length = 240152 BitCount = 124 ID = 260
   0.993666 1  105             Rx   d 8 10 27 00 00 00 00 00 37  Length = 240152 BitCount = 124 ID = 261
   0.993908 1  311             Rx   d 8 02 00 00 00 50 00 CB 02  Length = 233926 BitCount = 121 ID = 785
   0.994196 1  18E00000x       Rx   d 8 00 03 E7 03 2A 00 C2 0F  Length = 279910 BitCount = 144 ID = 417333248x
   0.994482 1  18E00100x       Rx   d 8 03 20 00 01 01 00 50 01  Length = 277910 BitCount = 143 ID = 417333504x
   1.002968 1  112             Rx   d 8 00 00 3C 37 00 00 00 00  Length = 235910 BitCount = 122 ID = 274
   1.003496 1  Statistic: D 299 R 0 XD 103 XR 0 E 0 O 0 B 10.22%
   1.003496 CAN 1 Status:chip status error active
   1.003496 2  Statistic: D 0 R 0 XD 0 XR 0 E 0 O 0 B 0.00%
   1.003496 CAN 2 Status:chip status error active
   1.010518 1  102             Rx   d 8 25 03 1C 00 00 00 00 44  Length = 237910 BitCount = 123 ID = 258
   1.010756 1  103             Rx   d 8 FF FF 2C 04 5A 00 00 88  Length = 229910 BitCount = 119 ID = 259
   1.011005 1  104             Rx   d 8 B2 20 00 00 00 00 00 D2  Length = 239911 BitCount = 124 ID = 260
   1.011253 1  105             Rx   d 8 10 27 00 00 00 00 00 37  Length = 239910 BitCount = 124 ID = 261
   1.011543 1  18E00000x       Rx   d 8 00 03 E7 03 28 00 C0 0F  Length = 281910 BitCount = 145 ID = 417333248x
   1.011829 1  18E00100x       Rx   d 8 03 20 00 01 01 00 50 01  Length = 277911 BitCount = 143 ID = 417333504x
   1.012971 1  113             Rx   d 8 01 01 00 00 00 03 00 00  Length = 237910 BitCount = 123 ID = 275
   1.017959 1  315             Rx   d 8 05 05 03 03 01 00 03 03  Length = 231910 BitCount = 120 ID = 789
   1.030586 1  102             Rx   d 8 25 03 1C 00 00 00 00 44  Length = 237910 BitCount = 123 ID = 258
   1.030824 1  103             Rx   d 8 FF FF 2C 04 5A 00 00 88  Length = 229911 BitCount = 119 ID = 259
   1.031072 1  104             Rx   d 8 B2 20 00 00 00 00 00 D2  Length = 239926 BitCount = 124 ID = 260
   1.031320 1  105             Rx   d 8 10 27 00 00 00 00 00 37  Length = 239910 BitCount = 124 ID = 261
   1.031608 1  18E00000x       Rx   d 8 00 03 E7 03 2A 00 C2 0F  Length = 279911 BitCount = 144 ID = 417333248x
   1.031895 1  18E00100x       Rx   d 8 03 20 00 01 01 00 50 01  Length = 277910 BitCount = 143 ID = 417333504x
   1.041876 1  221             Rx   d 8 00 5A 00 C5 03 00 00 54  Length = 227926 BitCount = 118 ID = 545
   1.050633 1  102             Rx   d 8 25 03 1C 00 00 00 00 44  Length = 237910 BitCount = 123 ID = 258
   1.050871 1  103             Rx   d 8 FF FF 2C 04 5A 00 00 88  Length = 229926 BitCount = 119 ID = 259
   1.051119 1  104             Rx   d 8 B2 20 00 00 00 00 00 D2  Length = 239910 BitCount = 124 ID = 260
   1.051367 1  105             Rx   d 8 10 27 00 00 00 00 00 37  Length = 239926 BitCount = 124 ID = 261
   1.051656 1  18E00000x       Rx   d 8 00 03 E7 03 2A 00 C0 0F  Length = 279911 BitCount = 144 ID = 417333248x
   1.051942 1  18E00100x       Rx   d 8 03 20 00 01 01 00 50 01  Length = 277926 BitCount = 143 ID = 417333504x
   1.070661 1  102             Rx   d 8 25 03 1C 00 00 00 00 44  Length = 237911 BitCount = 123 ID = 258
   1.070899 1  103             Rx   d 8 FF FF 2C 04 5A 00 00 88  Length = 229910 BitCount = 119 ID = 259
   1.071147 1  104             Rx   d 8 B2 20 00 00 00 00 00 D2  Length = 239910 BitCount = 124 ID = 260
   1.071395 1  105             Rx   d 8 10 27 00 00 00 00 00 37  Length = 239911 BitCount = 124 ID = 261
   1.071684 1  18E00000x       Rx   d 8 00 03 E7 03 2A 00 C2 0F  Length = 279910 BitCount = 144 ID = 417333248x
   1.071970 1  18E00100x       Rx   d 8 03 20 00 01 01 00 50 01  Length = 277910 BitCount = 143 ID = 417333504x
   1.090043 1  204             Rx   d 8 E0 38 38 38 38 FF FF FF  Length = 239910 BitCount = 124 ID = 516
   1.090279 1  205             Rx   d 8 C5 0F 12 AE 0F 05 00 00  Length = 227910 BitCount = 118 ID = 517
   1.090525 1  206             Rx   d 8 38 01 37 02 00 00 00 00  Length = 237911 BitCount = 123 ID = 518
   1.093957 1  311             Rx   d 8 02 00 00 00 50 00 CB 02  Length = 233910 BitCount = 121 ID = 785
   1.095594 1  102             Rx   d 8 25 03 1C 00 00 00 00 44  Length = 237926 BitCount = 123 ID = 258
   1.095832 1  103             Rx   d 8 FF FF 2C 04 5A 00 00 88  Length = 229910 BitCount = 119 ID = 259
   1.096080 1  104             Rx   d 8 B2 20 00 00 00 00 00 D2  Length = 239926 BitCount = 124 ID = 260
   1.096328 1  105             Rx   d 8 10 27 00 00 00 00 00 37  Length = 239910 BitCount = 124 ID = 261
   1.096616 1  18E00000x       Rx   d 8 00 03 E7 03 2A 00 C0 0F  Length = 279926 BitCount = 144 ID = 417333248x
   1.096902 1  18E00100x       Rx   d 8 03 20 00 01 01 00 50 01  Length = 277910 BitCount = 143 ID = 417333504x
   1.103964 1  112             Rx   d 8 00 00 3C 37 00 00 00 00  Length = 235910 BitCount = 122 ID = 274
   1.110765 1  102             Rx   d 8 25 03 1C 00 00 00 00 44  Length = 237910 BitCount = 123 ID = 258
   1.111003 1  103             Rx   d 8 FF FF 2C 04 5A 00 00 88  Length = 229926 BitCount = 119 ID = 259
   1.111251 1  104             Rx   d 8 B2 20 00 00 00 00 00 D2  Length = 239911 BitCount = 124 ID = 260
   1.111499 1  105             Rx   d 8 10 27 00 00 00 00 00 37  Length = 239926 BitCount = 124 ID = 261
   1.111787 1  18E00000x       Rx   d 8 00 03 E7 03 28 00 C2 0F  Length = 279910 BitCount = 144 ID = 417333248x
   1.112073 1  18E00100x       Rx   d 8 03 20 00 01 01 00 50 01  Length = 277926 BitCount = 143 ID = 417333504x
   1.113975 1  113             Rx   d 8 01 01 00 00 00 03 00 00  Length = 237926 BitCount = 123 ID = 275
   1.130784 1  102             Rx   d 8 25 03 1C 00 00 00 00 44  Length = 237910 BitCount = 123 ID = 258
   1.131023 1  103             Rx   d 8 FF FF 2C 04 5A 00 00 88  Length = 229911 BitCount = 119 ID = 259
   1.131271 1  104             Rx   d 8 B2 20 00 00 00 00 00 D2  Length = 239910 BitCount = 124 ID = 260
   1.131519 1  105             Rx   d 8 10 27 00 00 00 00 00 37  Length = 239910 BitCount = 124 ID = 261
   1.131807 1  18E00000x       Rx   d 8 00 03 E7 03 2A 00 C0 0F  Length = 279910 BitCount = 144 ID = 417333248x
   1.132093 1  18E00100x       Rx   d 8 03 20 00 01 01 00 50 01  Length = 277910 BitCount = 143 ID = 417333504x
   1.141835 1  221             Rx   d 8 00 5A 00 C5 03 00 00 54  Length = 227910 BitCount = 118 ID = 545
   1.150844 1  102             Rx   d 8 25 03 1C 00 00 00 00 44  Length = 237911 BitCount = 123 ID = 258
   1.151082 1  103             Rx   d 8 FF FF 2C 04 5A 00 00 88  Length = 229910 BitCount = 119 ID = 259
   1.151330 1  104             Rx   d 8 B2 20 00 00 00 00 00 D2  Length = 239926 BitCount = 124 ID = 260
   1.151578 1  105             Rx   d 8 10 27 00 00 00 00 00 37  Length = 239910 BitCount = 124 ID = 261
   1.151864 1  18E00000x       Rx   d 8 00 03 E7 03 1B 00 C7 0F  Length = 277926 BitCount = 143 ID = 417333248x
   1.152150 1  18E00100x       Rx   d 8 03 20 00 01 01 00 50 01  Length = 277911 BitCount = 143 ID = 417333504x
   1.170900 1  102             Rx   d 8 25 03 1C 00 00 00 00 44  Length = 237911 BitCount = 123 ID = 258
   1.171138 1  103             Rx   d 8 FF FF 2C 04 5A 00 00 88  Length = 229926 BitCount = 119 ID = 259
   1.171386 1  104             Rx   d 8 B2 20 00 00 00 00 00 D2  Length = 239910 BitCount = 124 ID = 260
   1.171634 1  105             Rx   d 8 10 27 00 00 00 00 00 37  Length = 239926 BitCount = 124 ID = 261
   1.171920 1  18E00000x       Rx   d 8 00 03 E7 03 28 00 C5 0F  Length = 277910 BitCount = 143 ID = 417333248x
   1.172206 1  18E00100x       Rx   d 8 03 20 00 01 01 00 50 01  Length = 277926 BitCount = 143 ID = 417333504x
   1.186887 1  18E00001x       Rx   d 8 60 00 2C 04 F3 01 2C 04  Length = 271910 BitCount = 140 ID = 417333249x
   1.187882 1  305             Rx   d 8 00 33 01 22 08 02 02 00  Length = 233911 BitCount = 121 ID = 773
   1.188120 1  306             Rx   d 8 00 33 01 22 08 03 01 01  Length = 229910 BitCount = 119 ID = 774
   1.188410 1  18E0000Bx       Rx   d 8 00 00 00 00 00 00 01 00  Length = 281910 BitCount = 145 ID = 417333259x
   1.188882 1  303             Rx   d 8 03 03 01 02 00 00 00 00  Length = 239910 BitCount = 124 ID = 771
   1.189124 1  302             Rx   d 8 18 04 1C 00 00 17 33 00  Length = 233910 BitCount = 121 ID = 770
   1.189358 1  304             Rx   d 8 01 30 33 4E 4D 45 30 38  Length = 225910 BitCount = 117 ID = 772
   1.190260 1  201             Rx   d 8 00 00 C8 00 00 00 07 CF  Length = 237910 BitCount = 123 ID = 513
   1.190507 1  202             Rx   d 8 09 01 00 00 00 00 00 0A  Length = 237926 BitCount = 123 ID = 514
   1.190745 1  203             Rx   d 8 81 AE 8F F0 23 FC 04 3F  Length = 229911 BitCount = 119 ID = 515
   1.192715 1  102             Rx   d 8 25 03 1C 00 00 00 00 44  Length = 237911 BitCount = 123 ID = 258
   1.192953 1  103             Rx   d 8 FF FF 2C 04 5A 00 00 88  Length = 229910 BitCount = 119 ID = 259
   1.193201 1  104             Rx   d 8 B2 20 00 00 00 00 00 D2  Length = 239910 BitCount = 124 ID = 260
   1.193449 1  105             Rx   d 8 10 27 00 00 00 00 00 37  Length = 239910 BitCount = 124 ID = 261
   1.193740 1  18E00000x       Rx   d 8 00 03 E7 03 28 00 C0 0F  Length = 281910 BitCount = 145 ID = 417333248x
   1.194026 1  18E00100x       Rx   d 8 03 20 00 01 01 00 50 01  Length = 277926 BitCount = 143 ID = 417333504x
   1.194954 1  311             Rx   d 8 02 00 00 00 50 00 CB 02  Length = 233910 BitCount = 121 ID = 785
   1.204958 1  112             Rx   d 8 00 00 3C 37 00 00 00 00  Length = 235926 BitCount = 122 ID = 274
   1.210978 1  102             Rx   d 8 25 03 1C 00 00 00 00 44  Length = 237910 BitCount = 123 ID = 258
   1.211216 1  103             Rx   d 8 FF FF 2C 04 5A 00 00 88  Length = 229910 BitCount = 119 ID = 259
   1.211464 1  104             Rx   d 8 B2 20 00 00 00 00 00 D2  Length = 239926 BitCount = 124 ID = 260
   1.211712 1  105             Rx   d 8 10 27 00 00 00 00 00 37  Length = 239911 BitCount = 124 ID = 261
   1.212003 1  18E00000x       Rx   d 8 00 03 E7 03 28 00 C0 0F  Length = 281926 BitCount = 145 ID = 417333248x
   1.212289 1  18E00100x       Rx   d 8 03 20 00 01 01 00 50 01  Length = 277910 BitCount = 143 ID = 417333504x
   1.214979 1  113             Rx   d 8 01 01 00 00 00 03 00 00  Length = 237911 BitCount = 123 ID = 275
   1.218951 1  315             Rx   d 8 05 05 03 03 01 00 03 03  Length = 231926 BitCount = 120 ID = 789
   1.230956 1  317             Rx   d 8 50 35 15 32 33 00 00 00  Length = 223911 BitCount = 116 ID = 791
   1.231202 1  102             Rx   d 8 25 03 1C 00 00 00 00 44  Length = 237910 BitCount = 123 ID = 258
   1.231441 1  103             Rx   d 8 FF FF 2C 04 5A 00 00 88  Length = 229910 BitCount = 119 ID = 259
   1.231689 1  104             Rx   d 8 B2 20 00 00 00 00 00 D2  Length = 239911 BitCount = 124 ID = 260
   1.231937 1  105             Rx   d 8 10 27 00 00 00 00 00 37  Length = 239910 BitCount = 124 ID = 261
   1.232225 1  18E00000x       Rx   d 8 00 03 E7 03 28 00 C2 0F  Length = 279910 BitCount = 144 ID = 417333248x
   1.232511 1  18E00100x       Rx   d 8 03 20 00 01 01 00 50 01  Length = 277911 BitCount = 143 ID = 417333504x
   1.242013 1  221             Rx   d 8 00 5A 00 C5 03 00 00 54  Length = 227911 BitCount = 118 ID = 545
   1.251083 1  102             Rx   d 8 25 03 1C 00 00 00 00 44  Length = 237910 BitCount = 123 ID = 258
   1.251322 1  103             Rx   d 8 FF FF 2C 04 5A 00 00 88  Length = 229910 BitCount = 119 ID = 259
   1.251570 1  104             Rx   d 8 B2 20 00 00 00 00 00 D2  Length = 239911 BitCount = 124 ID = 260
   1.251818 1  105             Rx   d 8 10 27 00 00 00 00 00 37  Length = 239910 BitCount = 124 ID = 261
   1.252106 1  18E00000x       Rx   d 8 00 03 E7 03 28 00 C2 0F  Length = 279910 BitCount = 144 ID = 417333248x
   1.252392 1  18E00100x       Rx   d 8 03 20 00 01 01 00 50 01  Length = 277911 BitCount = 143 ID = 417333504x
   1.271101 1  102             Rx   d 8 25 03 1C 00 00 00 00 44  Length = 237926 BitCount = 123 ID = 258
   1.271340 1  103             Rx   d 8 FF FF 2C 04 5A 00 00 88  Length = 229911 BitCount = 119 ID = 259
   1.271588 1  104             Rx   d 8 B2 20 00 00 00 00 00 D2  Length = 239926 BitCount = 124 ID = 260
   1.271836 1  105             Rx   d 8 10 27 00 00 00 00 00 37  Length = 239910 BitCount = 124 ID = 261
   1.272124 1  18E00000x       Rx   d 8 00 03 E7 03 2A 00 C0 0F  Length = 279926 BitCount = 144 ID = 417333248x
   1.272410 1  18E00100x       Rx   d 8 03 20 00 01 01 00 50 01  Length = 277910 BitCount = 143 ID = 417333504x
   1.290481 1  204             Rx   d 8 E1 FF 39 39 39 3B 41 FF  Length = 225926 BitCount = 117 ID = 516
   1.290718 1  205             Rx   d 8 C5 0F 12 AE 0F 05 00 00  Length = 227910 BitCount = 118 ID = 517
   1.290962 1  206             Rx   d 8 38 01 38 02 00 00 00 00  Length = 235926 BitCount = 122 ID = 518
   1.292150 1  102             Rx   d 8 25 03 1C 00 00 00 00 44  Length = 237911 BitCount = 123 ID = 258
   1.292388 1  103             Rx   d 8 FF FF 2C 04 5A 00 00 88  Length = 229926 BitCount = 119 ID = 259
   1.292636 1  104             Rx   d 8 B2 20 00 00 00 00 00 D2  Length = 239910 BitCount = 124 ID = 260
   1.292884 1  105             Rx   d 8 10 27 00 00 00 00 00 37  Length = 239926 BitCount = 124 ID = 261
   1.293172 1  18E00000x       Rx   d 8 00 03 E7 03 2A 00 C2 0F  Length = 279910 BitCount = 144 ID = 417333248x
   1.293459 1  18E00100x       Rx   d 8 03 20 00 01 01 00 50 01  Length = 277926 BitCount = 143 ID = 417333504x
   1.295967 1  311             Rx   d 8 02 00 00 00 50 00 CB 02  Length = 233910 BitCount = 121 ID = 785
   1.305958 1  112             Rx   d 8 00 00 3C 37 00 00 00 00  Length = 235911 BitCount = 122 ID = 274
   1.311215 1  102             Rx   d 8 25 03 1C 00 00 00 00 44  Length = 237911 BitCount = 123 ID = 258
   1.311453 1  103             Rx   d 8 FF FF 2C 04 5A 00 00 88  Length = 229910 BitCount = 119 ID = 259
   1.311701 1  104             Rx   d 8 B2 20 00 00 00 00 00 D2  Length = 239910 BitCount = 124 ID = 260
   1.311949 1  105             Rx   d 8 10 27 00 00 00 00 00 37  Length = 239911 BitCount = 124 ID = 261
   1.312239 1  18E00000x       Rx   d 8 00 03 E7 03 28 00 C0 0F  Length = 281910 BitCount = 145 ID = 417333248x
   1.312526 1  18E00100x       Rx   d 8 03 20 00 01 01 00 50 01  Length = 277910 BitCount = 143 ID = 417333504x
   1.315961 1  113             Rx   d 8 01 01 00 00 00 03 00 00  Length = 237910 BitCount = 123 ID = 275
   1.331265 1  102             Rx   d 8 25 03 1C 00 00 00 00 44  Length = 237910 BitCount = 123 ID = 258
   1.331503 1  103             Rx   d 8 FF FF 2C 04 5A 00 00 88  Length = 229910 BitCount = 119 ID = 259
   1.331751 1  104             Rx   d 8 B2 20 00 00 00 00 00 D2  Length = 239926 BitCount = 124 ID = 260
   1.331999 1  105             Rx   d 8 10 27 00 00 00 00 00 37  Length = 239910 BitCount = 124 ID = 261
   1.332289 1  18E00000x       Rx   d 8 00 03 E7 03 28 00 C0 0F  Length = 281910 BitCount = 145 ID = 417333248x
   1.332575 1  18E00100x       Rx   d 8 03 20 00 01 01 00 50 01  Length = 277910 BitCount = 143 ID = 417333504x
   1.341825 1  221             Rx   d 8 00 5A 00 C5 03 00 00 54  Length = 227926 BitCount = 118 ID = 545
   1.351296 1  102             Rx   d 8 25 03 1C 00 00 00 00 44  Length = 237910 BitCount = 123 ID = 258
   1.351534 1  103             Rx   d 8 FF FF 2C 04 5A 00 00 88  Length = 229926 BitCount = 119 ID = 259
   1.351782 1  104             Rx   d 8 B2 20 00 00 00 00 00 D2  Length = 239911 BitCount = 124 ID = 260
   1.352030 1  105             Rx   d 8 10 27 00 00 00 00 00 37  Length = 239926 BitCount = 124 ID = 261
   1.352318 1  18E00000x       Rx   d 8 00 03 E7 03 1B 00 C2 0F  Length = 279910 BitCount = 144 ID = 417333248x
   1.352604 1  18E00100x       Rx   d 8 03 20 00 01 01 00 50 01  Length = 277926 BitCount = 143 ID = 417333504x
   1.371334 1  102             Rx   d 8 25 03 1C 00 00 00 00 44  Length = 237910 BitCount = 123 ID = 258
   1.371572 1  103             Rx   d 8 FF FF 2C 04 5A 00 00 88  Length = 229911 BitCount = 119 ID = 259
   1.371820 1  104             Rx   d 8 B2 20 00 00 00 00 00 D2  Length = 239910 BitCount = 124 ID = 260
   1.372068 1  105             Rx   d 8 10 27 00 00 00 00 00 37  Length = 239910 BitCount = 124 ID = 261
   1.372358 1  18E00000x       Rx   d 8 00 03 E7 03 28 00 C0 0F  Length = 281910 BitCount = 145 ID = 417333248x
   1.372644 1  18E00100x       Rx   d 8 03 20 00 01 01 00 50 01  Length = 277910 BitCount = 143 ID = 417333504x
   1.389332 1  303             Rx   d 8 03 03 01 02 00 00 00 00  Length = 239926 BitCount = 124 ID = 771
   1.389576 1  302             Rx   d 8 18 04 1C 00 00 17 34 00  Length = 235911 BitCount = 122 ID = 770
   1.389808 1  304             Rx   d 8 02 54 51 4C 30 30 31 47  Length = 223926 BitCount = 116 ID = 772
   1.390728 1  201             Rx   d 8 00 00 C8 00 00 00 07 CF  Length = 237911 BitCount = 123 ID = 513
   1.390974 1  202             Rx   d 8 09 01 00 00 00 00 00 0A  Length = 237910 BitCount = 123 ID = 514
   1.391208 1  203             Rx   d 8 82 C3 CF F0 F3 FA E0 3E  Length = 225910 BitCount = 117 ID = 515
   1.396265 1  102             Rx   d 8 25 03 1C 00 00 00 00 44  Length = 237926 BitCount = 123 ID = 258
   1.396503 1  103             Rx   d 8 FF FF 2C 04 5A 00 00 88  Length = 229910 BitCount = 119 ID = 259
   1.396751 1  104             Rx   d 8 B2 20 00 00 00 00 00 D2  Length = 239911 BitCount = 124 ID = 260
   1.396999 1  105             Rx   d 8 10 27 00 00 00 00 00 37  Length = 239911 BitCount = 124 ID = 261
   1.397241 1  311             Rx   d 8 02 00 00 00 50 00 CB 02  Length = 233911 BitCount = 121 ID = 785
   1.397529 1  18E00000x       Rx   d 8 00 03 E7 03 2A 00 C0 0F  Length = 279911 BitCount = 144 ID = 417333248x
   1.397816 1  18E00100x       Rx   d 8 03 20 00 01 01 00 50 01  Length = 277926 BitCount = 143 ID = 417333504x
   1.406955 1  112             Rx   d 8 00 00 3C 37 00 00 00 00  Length = 235910 BitCount = 122 ID = 274
   1.411426 1  102             Rx   d 8 25 03 1C 00 00 00 00 44  Length = 237911 BitCount = 123 ID = 258
   1.411664 1  103             Rx   d 8 FF FF 2C 04 5A 00 00 88  Length = 229926 BitCount = 119 ID = 259
   1.411912 1  104             Rx   d 8 B2 20 00 00 00 00 00 D2  Length = 239910 BitCount = 124 ID = 260
   1.412160 1  105             Rx   d 8 10 27 00 00 00 00 00 37  Length = 239910 BitCount = 124 ID = 261
   1.412448 1  18E00000x       Rx   d 8 00 03 E7 03 28 00 C2 0F  Length = 279910 BitCount = 144 ID = 417333248x
   1.412735 1  18E00100x       Rx   d 8 03 20 00 01 01 00 50 01  Length = 277926 BitCount = 143 ID = 417333504x
   1.416956 1  113             Rx   d 8 01 01 00 00 00 03 00 00  Length = 237926 BitCount = 123 ID = 275
   1.419948 1  315             Rx   d 8 05 05 03 03 01 00 03 03  Length = 231910 BitCount = 120 ID = 789
   1.430954 1  318             Rx   d 8 04 00 00 04 05 00 20 00  Length = 235926 BitCount = 122 ID = 792
   1.431474 1  102             Rx   d 8 25 03 1C 00 00 00 00 44  Length = 237910 BitCount = 123 ID = 258
   1.431712 1  103             Rx   d 8 FF FF 2C 04 5A 00 00 88  Length = 229910 BitCount = 119 ID = 259
   1.431961 1  104             Rx   d 8 B2 20 00 00 00 00 00 D2  Length = 239910 BitCount = 124 ID = 260
   1.432209 1  105             Rx   d 8 10 27 00 00 00 00 00 37  Length = 239910 BitCount = 124 ID = 261
   1.432495 1  18E00000x       Rx   d 8 00 03 E7 03 28 00 C5 0F  Length = 277911 BitCount = 143 ID = 417333248x
   1.432781 1  18E00100x       Rx   d 8 03 20 00 01 01 00 50 01  Length = 277910 BitCount = 143 ID = 417333504x
   1.441829 1  221             Rx   d 8 00 5A 00 C5 03 00 00 54  Length = 227910 BitCount = 118 ID = 545
   1.451507 1  102             Rx   d 8 25 03 1C 00 00 00 00 44  Length = 237926 BitCount = 123 ID = 258
   1.451745 1  103             Rx   d 8 FF FF 2C 04 5A 00 00 88  Length = 229910 BitCount = 119 ID = 259
   1.451994 1  104             Rx   d 8 B2 20 00 00 00 00 00 D2  Length = 239926 BitCount = 124 ID = 260
   1.452242 1  105             Rx   d 8 10 27 00 00 00 00 00 37  Length = 239911 BitCount = 124 ID = 261
   1.452530 1  18E00000x       Rx   d 8 00 03 E7 03 28 00 C2 0F  Length = 279926 BitCount = 144 ID = 417333248x
   1.452816 1  18E00100x       Rx   d 8 03 20 00 01 01 00 50 01  Length = 277910 BitCount = 143 ID = 417333504x
   1.471561 1  102             Rx   d 8 25 03 1C 00 00 00 00 44  Length = 237910 BitCount = 123 ID = 258
   1.471799 1  103             Rx   d 8 FF FF 2C 04 5A 00 00 88  Length = 229926 BitCount = 119 ID = 259
   1.472048 1  104             Rx   d 8 B2 20 00 00 00 00 00 D2  Length = 239910 BitCount = 124 ID = 260
   1.472296 1  105             Rx   d 8 10 27 00 00 00 00 00 37  Length = 239911 BitCount = 124 ID = 261
   1.472584 1  18E00000x       Rx   d 8 00 03 E7 03 2A 00 C0 0F  Length = 279910 BitCount = 144 ID = 417333248x
   1.472870 1  18E00100x       Rx   d 8 03 20 00 01 01 00 50 01  Length = 277926 BitCount = 143 ID = 417333504x
   1.490941 1  204             Rx   d 8 22 FF FF FF FF FF FF FF  Length = 241911 BitCount = 125 ID = 516
   1.491177 1  205             Rx   d 8 C5 0F 12 AE 0F 05 00 00  Length = 227910 BitCount = 118 ID = 517
   1.491420 1  206             Rx   d 8 38 04 37 02 00 00 00 00  Length = 233910 BitCount = 121 ID = 518
   1.492640 1  102             Rx   d 8 25 03 1C 00 00 00 00 44  Length = 237910 BitCount = 123 ID = 258
   1.492878 1  103             Rx   d 8 FF FF 2C 04 5A 00 00 88  Length = 229911 BitCount = 119 ID = 259
   1.493126 1  104             Rx   d 8 B2 20 00 00 00 00 00 D2  Length = 239910 BitCount = 124 ID = 260
   1.493374 1  105             Rx   d 8 10 27 00 00 00 00 00 37  Length = 239910 BitCount = 124 ID = 261
   1.493662 1  18E00000x       Rx   d 8 00 03 E7 03 28 00 C2 0F  Length = 279910 BitCount = 144 ID = 417333248x
   1.493948 1  18E00100x       Rx   d 8 03 20 00 01 01 00 50 01  Length = 277910 BitCount = 143 ID = 417333504x
   1.497940 1  311             Rx   d 8 02 00 00 00 50 00 CB 02  Length = 233910 BitCount = 121 ID = 785
   1.507940 1  112             Rx   d 8 00 00 3C 37 00 00 00 00  Length = 235926 BitCount = 122 ID = 274
   1.511650 1  102             Rx   d 8 25 03 1C 00 00 00 00 44  Length = 237926 BitCount = 123 ID = 258
   1.511889 1  103             Rx   d 8 FF FF 2C 04 5A 00 00 88  Length = 229911 BitCount = 119 ID = 259
   1.512137 1  104             Rx   d 8 B2 20 00 00 00 00 00 D2  Length = 239926 BitCount = 124 ID = 260
   1.512385 1  105             Rx   d 8 10 27 00 00 00 00 00 37  Length = 239910 BitCount = 124 ID = 261
   1.512673 1  18E00000x       Rx   d 8 00 03 E7 03 28 00 C2 0F  Length = 279926 BitCount = 144 ID = 417333248x
   1.512959 1  18E00100x       Rx   d 8 03 20 00 01 01 00 50 01  Length = 277910 BitCount = 143 ID = 417333504x
   1.517957 1  113             Rx   d 8 01 01 00 00 00 03 00 00  Length = 237910 BitCount = 123 ID = 275
   1.531696 1  102             Rx   d 8 25 03 1C 00 00 00 00 44  Length = 237910 BitCount = 123 ID = 258
   1.531934 1  103             Rx   d 8 FF FF 2C 04 5A 00 00 88  Length = 229911 BitCount = 119 ID = 259
   1.532182 1  104             Rx   d 8 B2 20 00 00 00 00 00 D2  Length = 239910 BitCount = 124 ID = 260
   1.532430 1  105             Rx   d 8 10 27 00 00 00 00 00 37  Length = 239910 BitCount = 124 ID = 261
   1.532718 1  18E00000x       Rx   d 8 00 03 E7 03 28 00 C2 0F  Length = 279911 BitCount = 144 ID = 417333248x
   1.533005 1  18E00100x       Rx   d 8 03 20 00 01 01 00 50 01  Length = 277926 BitCount = 143 ID = 417333504x
   1.541814 1  221             Rx   d 8 00 5A 00 C5 03 00 00 54  Length = 227910 BitCount = 118 ID = 545
   1.551741 1  102             Rx   d 8 25 03 1C 00 00 00 00 44  Length = 237911 BitCount = 123 ID = 258
   1.551979 1  103             Rx   d 8 FF FF 2C 04 5A 00 00 88  Length = 229910 BitCount = 119 ID = 259
   1.552227 1  104             Rx   d 8 B2 20 00 00 00 00 00 D2  Length = 239910 BitCount = 124 ID = 260
   1.552475 1  105             Rx   d 8 10 27 00 00 00 00 00 37  Length = 239911 BitCount = 124 ID = 261
   1.552762 1  18E00000x       Rx   d 8 00 03 E7 03 23 00 C5 0F  Length = 277910 BitCount = 143 ID = 417333248x
   1.553048 1  18E00100x       Rx   d 8 03 20 00 01 01 00 50 01  Length = 277910 BitCount = 143 ID = 417333504x
   1.556950 1  314             Rx   d 8 33 30 30 30 36 41 00 00  Length = 233911 BitCount = 121 ID = 788
   1.571799 1  102             Rx   d 8 25 03 1C 00 00 00 00 44  Length = 237926 BitCount = 123 ID = 258
   1.572037 1  103             Rx   d 8 FF FF 2C 04 5A 00 00 88  Length = 229910 BitCount = 119 ID = 259
   1.572285 1  104             Rx   d 8 B2 20 00 00 00 00 00 D2  Length = 239926 BitCount = 124 ID = 260
   1.572533 1  105             Rx   d 8 10 27 00 00 00 00 00 37  Length = 239910 BitCount = 124 ID = 261
   1.572819 1  18E00000x       Rx   d 8 00 03 E7 03 28 00 CF 0F  Length = 277926 BitCount = 143 ID = 417333248x
   1.573106 1  18E00100x       Rx   d 8 03 20 00 01 01 00 50 01  Length = 277910 BitCount = 143 ID = 417333504x
   1.589771 1  303             Rx   d 8 03 03 01 02 00 00 00 00  Length = 239910 BitCount = 124 ID = 771
   1.590015 1  302             Rx   d 8 18 04 1C 00 00 17 34 00  Length = 235910 BitCount = 122 ID = 770
   1.590251 1  304             Rx   d 8 03 44 35 4E 30 30 30 30  Length = 227911 BitCount = 118 ID = 772
   1.591169 1  201             Rx   d 8 00 00 C8 00 00 00 07 CF  Length = 237926 BitCount = 123 ID = 513
   1.591415 1  202             Rx   d 8 09 01 00 00 00 00 00 0A  Length = 237911 BitCount = 123 ID = 514
   1.591647 1  203             Rx   d 8 83 B4 4F EC 43 FB 0C 3F  Length = 223926 BitCount = 116 ID = 515
   1.596756 1  102             Rx   d 8 25 03 1C 00 00 00 00 44  Length = 237910 BitCount = 123 ID = 258
   1.596994 1  103             Rx   d 8 FF FF 2C 04 5A 00 00 88  Length = 229910 BitCount = 119 ID = 259
   1.597242 1  104             Rx   d 8 B2 20 00 00 00 00 00 D2  Length = 239910 BitCount = 124 ID = 260
   1.597490 1  105             Rx   d 8 10 27 00 00 00 00 00 37  Length = 239911 BitCount = 124 ID = 261
   1.597782 1  18E00000x       Rx   d 8 00 03 E7 03 28 00 BE 0F  Length = 283910 BitCount = 146 ID = 417333248x
   1.598069 1  18E00100x       Rx   d 8 03 20 00 01 01 00 50 01  Length = 277910 BitCount = 143 ID = 417333504x
   1.598947 1  311             Rx   d 8 02 00 00 00 50 00 CB 02  Length = 233911 BitCount = 121 ID = 785
   1.608950 1  112             Rx   d 8 00 00 3C 37 00 00 00 00  Length = 235910 BitCount = 122 ID = 274
   1.611863 1  102             Rx   d 8 25 03 1C 00 00 00 00 44  Length = 237910 BitCount = 123 ID = 258
   1.612101 1  103             Rx   d 8 FF FF 2C 04 5A 00 00 88  Length = 229911 BitCount = 119 ID = 259
   1.612349 1  104             Rx   d 8 B2 20 00 00 00 00 00 D2  Length = 239910 BitCount = 124 ID = 260
   1.612597 1  105             Rx   d 8 10 27 00 00 00 00 00 37  Length = 239910 BitCount = 124 ID = 261
   1.612887 1  18E00000x       Rx   d 8 00 03 E7 03 28 00 C0 0F  Length = 281910 BitCount = 145 ID = 417333248x
   1.613173 1  18E00100x       Rx   d 8 03 20 00 01 01 00 50 01  Length = 277910 BitCount = 143 ID = 417333504x
   1.618953 1  113             Rx   d 8 01 01 00 00 00 03 00 00  Length = 237910 BitCount = 123 ID = 275
   1.620945 1  315             Rx   d 8 05 05 03 03 01 00 03 03  Length = 231926 BitCount = 120 ID = 789
   1.631926 1  102             Rx   d 8 25 03 1C 00 00 00 00 44  Length = 237926 BitCount = 123 ID = 258
   1.632164 1  103             Rx   d 8 FF FF 2C 04 5A 00 00 88  Length = 229910 BitCount = 119 ID = 259
   1.632412 1  104             Rx   d 8 B2 20 00 00 00 00 00 D2  Length = 239926 BitCount = 124 ID = 260
   1.632661 1  105             Rx   d 8 10 27 00 00 00 00 00 37  Length = 239910 BitCount = 124 ID = 261
   1.632951 1  18E00000x       Rx   d 8 00 03 E7 03 28 00 C0 0F  Length = 281926 BitCount = 145 ID = 417333248x
   1.633237 1  18E00100x       Rx   d 8 03 20 00 01 01 00 50 01  Length = 277911 BitCount = 143 ID = 417333504x
   1.648978 1  221             Rx   d 8 00 5A 00 C5 03 00 00 54  Length = 227910 BitCount = 118 ID = 545
   1.651979 1  102             Rx   d 8 25 03 1C 00 00 00 00 44  Length = 237911 BitCount = 123 ID = 258
   1.652217 1  103             Rx   d 8 FF FF 2C 04 5A 00 00 88  Length = 229926 BitCount = 119 ID = 259
   1.652465 1  104             Rx   d 8 B2 20 00 00 00 00 00 D2  Length = 239910 BitCount = 124 ID = 260
   1.652713 1  105             Rx   d 8 10 27 00 00 00 00 00 37  Length = 239910 BitCount = 124 ID = 261
   1.653003 1  18E00000x       Rx   d 8 00 03 E7 03 28 00 C0 0F  Length = 281910 BitCount = 145 ID = 417333248x
   1.653289 1  18E00100x       Rx   d 8 03 20 00 01 01 00 50 01  Length = 277926 BitCount = 143 ID = 417333504x
   1.672007 1  102             Rx   d 8 25 03 1C 00 00 00 00 44  Length = 237910 BitCount = 123 ID = 258
   1.672245 1  103             Rx   d 8 FF FF 2C 04 5A 00 00 88  Length = 229910 BitCount = 119 ID = 259
   1.672493 1  104             Rx   d 8 B2 20 00 00 00 00 00 D2  Length = 239910 BitCount = 124 ID = 260
   1.672741 1  105             Rx   d 8 10 27 00 00 00 00 00 37  Length = 239910 BitCount = 124 ID = 261
   1.673031 1  18E00000x       Rx   d 8 00 03 E7 03 28 00 C0 0F  Length = 281911 BitCount = 145 ID = 417333248x
   1.673317 1  18E00100x       Rx   d 8 03 20 00 01 01 00 50 01  Length = 277910 BitCount = 143 ID = 417333504x
   1.689003 1  305             Rx   d 8 00 33 01 22 08 02 02 00  Length = 233926 BitCount = 121 ID = 773
   1.689241 1  306             Rx   d 8 00 33 01 22 08 03 01 01  Length = 229910 BitCount = 119 ID = 774
   1.689531 1  18E0000Bx       Rx   d 8 00 00 00 00 00 00 01 00  Length = 281926 BitCount = 145 ID = 417333259x
   1.691367 1  204             Rx   d 8 E0 38 37 38 38 FF FF FF  Length = 231910 BitCount = 120 ID = 516
   1.691603 1  205             Rx   d 8 C5 0F 12 AE 0F 05 00 00  Length = 227911 BitCount = 118 ID = 517
   1.691849 1  206             Rx   d 8 38 01 37 02 00 00 00 00  Length = 237910 BitCount = 123 ID = 518
   1.693042 1  102             Rx   d 8 25 03 1C 00 00 00 00 44  Length = 237926 BitCount = 123 ID = 258
   1.693280 1  103             Rx   d 8 FF FF 2C 04 5A 00 00 88  Length = 229910 BitCount = 119 ID = 259
   1.693528 1  104             Rx   d 8 B2 20 00 00 00 00 00 D2  Length = 239926 BitCount = 124 ID = 260
   1.693776 1  105             Rx   d 8 10 27 00 00 00 00 00 37  Length = 239910 BitCount = 124 ID = 261
   1.694066 1  18E00000x       Rx   d 8 00 03 E7 03 28 00 C0 0F  Length = 281926 BitCount = 145 ID = 417333248x
   1.694352 1  18E00100x       Rx   d 8 03 20 00 01 01 00 50 01  Length = 277910 BitCount = 143 ID = 417333504x
   1.699942 1  311             Rx   d 8 02 00 00 00 50 00 CB 02  Length = 233910 BitCount = 121 ID = 785
   1.709946 1  112             Rx   d 8 00 00 3C 37 00 00 00 00  Length = 235910 BitCount = 122 ID = 274
   1.711948 1  12              Rx   d 8 00 00 01 00 00 00 00 01  Length = 241910 BitCount = 125 ID = 18
   1.712194 1  102             Rx   d 8 25 03 1C 00 00 00 00 44  Length = 237910 BitCount = 123 ID = 258
   1.712432 1  103             Rx   d 8 FF FF 2C 04 5A 00 00 88  Length = 229926 BitCount = 119 ID = 259
   1.712680 1  104             Rx   d 8 B2 20 00 00 00 00 00 D2  Length = 239911 BitCount = 124 ID = 260
   1.712928 1  105             Rx   d 8 10 27 00 00 00 00 00 37  Length = 239926 BitCount = 124 ID = 261
   1.713218 1  18E00000x       Rx   d 8 00 03 E7 03 28 00 C0 0F  Length = 281910 BitCount = 145 ID = 417333248x
   1.713505 1  18E00100x       Rx   d 8 03 20 00 01 01 00 50 01  Length = 277911 BitCount = 143 ID = 417333504x
   1.719974 1  113             Rx   d 8 01 01 00 00 00 03 00 00  Length = 237926 BitCount = 123 ID = 275
   1.731948 1  317             Rx   d 8 50 35 15 32 33 00 00 00  Length = 223911 BitCount = 116 ID = 791
   1.732194 1  102             Rx   d 8 25 03 1C 00 00 00 00 44  Length = 237910 BitCount = 123 ID = 258
   1.732432 1  103             Rx   d 8 FF FF 2C 04 5A 00 00 88  Length = 229910 BitCount = 119 ID = 259
   1.732680 1  104             Rx   d 8 B2 20 00 00 00 00 00 D2  Length = 239911 BitCount = 124 ID = 260
   1.732929 1  105             Rx   d 8 10 27 00 00 00 00 00 37  Length = 239910 BitCount = 124 ID = 261
   1.733179 1  12              Rx   d 8 00 00 01 00 00 00 00 01  Length = 241926 BitCount = 125 ID = 18
   1.733467 1  18E00000x       Rx   d 8 00 03 E7 03 28 00 C2 0F  Length = 279911 BitCount = 144 ID = 417333248x
   1.733753 1  18E00100x       Rx   d 8 03 20 00 01 01 00 50 01  Length = 277910 BitCount = 143 ID = 417333504x
   1.742038 1  221             Rx   d 8 00 5A 00 C5 03 00 00 54  Length = 227911 BitCount = 118 ID = 545
   1.752171 1  102             Rx   d 8 25 03 1C 00 00 00 00 44  Length = 237926 BitCount = 123 ID = 258
   1.752409 1  103             Rx   d 8 FF FF 2C 04 5A 00 00 88  Length = 229911 BitCount = 119 ID = 259
   1.752657 1  104             Rx   d 8 B2 20 00 00 00 00 00 D2  Length = 239926 BitCount = 124 ID = 260
   1.752906 1  105             Rx   d 8 10 27 00 00 00 00 00 37  Length = 239910 BitCount = 124 ID = 261
   1.753196 1  18E00000x       Rx   d 8 00 03 E7 03 28 00 C0 0F  Length = 281926 BitCount = 145 ID = 417333248x
   1.753482 1  18E00100x       Rx   d 8 03 20 00 01 01 00 50 01  Length = 277910 BitCount = 143 ID = 417333504x
   1.753940 1  12              Rx   d 8 00 00 01 00 00 00 00 01  Length = 241910 BitCount = 125 ID = 18
   1.772221 1  102             Rx   d 8 25 03 1C 00 00 00 00 44  Length = 237910 BitCount = 123 ID = 258
   1.772459 1  103             Rx   d 8 FF FF 2C 04 5A 00 00 88  Length = 229911 BitCount = 119 ID = 259
   1.772707 1  104             Rx   d 8 B2 20 00 00 00 00 00 D2  Length = 239910 BitCount = 124 ID = 260
   1.772956 1  105             Rx   d 8 10 27 00 00 00 00 00 37  Length = 239910 BitCount = 124 ID = 261
   1.773246 1  18E00000x       Rx   d 8 00 03 E7 03 28 00 C0 0F  Length = 281911 BitCount = 145 ID = 417333248x
   1.773532 1  18E00100x       Rx   d 8 03 20 00 01 01 00 50 01  Length = 277926 BitCount = 143 ID = 417333504x
   1.774934 1  12              Rx   d 8 00 00 01 00 00 00 00 01  Length = 241910 BitCount = 125 ID = 18
   1.790241 1  303             Rx   d 8 03 03 01 02 00 00 00 00  Length = 239911 BitCount = 124 ID = 771
   1.790485 1  302             Rx   d 8 18 04 1C 00 00 17 34 00  Length = 235910 BitCount = 122 ID = 770
   1.790729 1  304             Rx   d 8 04 30 34 33 00 00 00 00  Length = 235910 BitCount = 122 ID = 772
   1.791628 1  201             Rx   d 8 00 00 C8 00 00 00 07 CF  Length = 237910 BitCount = 123 ID = 513
   1.791874 1  202             Rx   d 8 09 01 00 00 00 00 00 0A  Length = 237926 BitCount = 123 ID = 514
   1.792106 1  203             Rx   d 8 84 C4 4F F1 33 FC 0C 3F  Length = 223910 BitCount = 116 ID = 515
   1.795948 1  12              Rx   d 8 00 00 01 00 00 00 00 01  Length = 241910 BitCount = 125 ID = 18
   1.797164 1  102             Rx   d 8 25 03 1C 00 00 00 00 44  Length = 237910 BitCount = 123 ID = 258
   1.797402 1  103             Rx   d 8 FF FF 2C 04 5A 00 00 88  Length = 229926 BitCount = 119 ID = 259
   1.797650 1  104             Rx   d 8 B2 20 00 00 00 00 00 D2  Length = 239910 BitCount = 124 ID = 260
   1.797898 1  105             Rx   d 8 10 27 00 00 00 00 00 37  Length = 239926 BitCount = 124 ID = 261
   1.798186 1  18E00000x       Rx   d 8 00 03 E7 03 28 00 C2 0F  Length = 279911 BitCount = 144 ID = 417333248x
   1.798473 1  18E00100x       Rx   d 8 03 20 00 01 01 00 50 01  Length = 277926 BitCount = 143 ID = 417333504x
   1.800951 1  311             Rx   d 8 02 00 00 00 50 00 CB 02  Length = 233910 BitCount = 121 ID = 785
   1.810954 1  112             Rx   d 8 00 00 3C 37 00 00 00 00  Length = 235910 BitCount = 122 ID = 274
   1.812330 1  102             Rx   d 8 25 03 1C 00 00 00 00 44  Length = 237926 BitCount = 123 ID = 258
   1.812569 1  103             Rx   d 8 FF FF 2C 04 5A 00 00 88  Length = 229910 BitCount = 119 ID = 259
   1.812817 1  104             Rx   d 8 B2 20 00 00 00 00 00 D2  Length = 239926 BitCount = 124 ID = 260
   1.813065 1  105             Rx   d 8 10 27 00 00 00 00 00 37  Length = 239910 BitCount = 124 ID = 261
   1.813353 1  18E00000x       Rx   d 8 00 03 E7 03 28 00 C2 0F  Length = 279926 BitCount = 144 ID = 417333248x
   1.813639 1  18E00100x       Rx   d 8 03 20 00 01 01 00 50 01  Length = 277910 BitCount = 143 ID = 417333504x
   1.816947 1  12              Rx   d 8 00 00 01 00 00 00 00 01  Length = 241910 BitCount = 125 ID = 18
   1.820953 1  113             Rx   d 8 01 01 00 00 00 03 00 00  Length = 237911 BitCount = 123 ID = 275
   1.821943 1  315             Rx   d 8 05 05 03 03 01 00 03 03  Length = 231910 BitCount = 120 ID = 789
   1.832378 1  102             Rx   d 8 25 03 1C 00 00 00 00 44  Length = 237910 BitCount = 123 ID = 258
   1.832616 1  103             Rx   d 8 FF FF 2C 04 5A 00 00 88  Length = 229926 BitCount = 119 ID = 259
   1.832864 1  104             Rx   d 8 B2 20 00 00 00 00 00 D2  Length = 239911 BitCount = 124 ID = 260
   1.833112 1  105             Rx   d 8 10 27 00 00 00 00 00 37  Length = 239910 BitCount = 124 ID = 261
   1.833401 1  18E00000x       Rx   d 8 00 03 E7 03 28 00 C2 0F  Length = 279910 BitCount = 144 ID = 417333248x
   1.833687 1  18E00100x       Rx   d 8 03 20 00 01 01 00 50 01  Length = 277926 BitCount = 143 ID = 417333504x
   1.837949 1  12              Rx   d 8 00 00 01 00 00 00 00 01  Length = 241910 BitCount = 125 ID = 18
   1.841800 1  221             Rx   d 8 00 5A 00 C5 03 00 00 54  Length = 227911 BitCount = 118 ID = 545
   1.852407 1  102             Rx   d 8 25 03 1C 00 00 00 00 44  Length = 237910 BitCount = 123 ID = 258
   1.852645 1  103             Rx   d 8 FF FF 2C 04 5A 00 00 88  Length = 229911 BitCount = 119 ID = 259
   1.852893 1  104             Rx   d 8 B2 20 00 00 00 00 00 D2  Length = 239910 BitCount = 124 ID = 260
   1.853142 1  105             Rx   d 8 10 27 00 00 00 00 00 37  Length = 239910 BitCount = 124 ID = 261
   1.853432 1  18E00000x       Rx   d 8 00 03 E7 03 28 00 C0 0F  Length = 281910 BitCount = 145 ID = 417333248x
   1.853718 1  18E00100x       Rx   d 8 03 20 00 01 01 00 50 01  Length = 277910 BitCount = 143 ID = 417333504x
   1.858946 1  12              Rx   d 8 00 00 01 00 00 00 00 01  Length = 241910 BitCount = 125 ID = 18
   1.872465 1  102             Rx   d 8 25 03 1C 00 00 00 00 44  Length = 237926 BitCount = 123 ID = 258
   1.872703 1  103             Rx   d 8 FF FF 2C 04 5A 00 00 88  Length = 229910 BitCount = 119 ID = 259
   1.872951 1  104             Rx   d 8 B2 20 00 00 00 00 00 D2  Length = 239926 BitCount = 124 ID = 260
   1.873199 1  105             Rx   d 8 10 27 00 00 00 00 00 37  Length = 239910 BitCount = 124 ID = 261
   1.873489 1  18E00000x       Rx   d 8 00 03 E7 03 28 00 C0 0F  Length = 281926 BitCount = 145 ID = 417333248x
   1.873775 1  18E00100x       Rx   d 8 03 20 00 01 01 00 50 01  Length = 277911 BitCount = 143 ID = 417333504x
   1.879945 1  12              Rx   d 8 00 00 01 00 00 00 00 01  Length = 241910 BitCount = 125 ID = 18
   1.891820 1  204             Rx   d 8 E1 FF 39 39 39 3B 41 FF  Length = 225926 BitCount = 117 ID = 516
   1.892056 1  205             Rx   d 8 C5 0F 12 AE 0F 05 00 00  Length = 227910 BitCount = 118 ID = 517
   1.892302 1  206             Rx   d 8 38 01 37 02 00 00 00 00  Length = 237926 BitCount = 123 ID = 518
   1.893541 1  102             Rx   d 8 25 03 1C 00 00 00 00 44  Length = 237910 BitCount = 123 ID = 258
   1.893779 1  103             Rx   d 8 FF FF 2C 04 5A 00 00 88  Length = 229926 BitCount = 119 ID = 259
   1.894027 1  104             Rx   d 8 B2 20 00 00 00 00 00 D2  Length = 239910 BitCount = 124 ID = 260
   1.894275 1  105             Rx   d 8 10 27 00 00 00 00 00 37  Length = 239926 BitCount = 124 ID = 261
   1.894565 1  18E00000x       Rx   d 8 00 03 E7 03 28 00 C0 0F  Length = 281911 BitCount = 145 ID = 417333248x
   1.894851 1  18E00100x       Rx   d 8 03 20 00 01 01 00 50 01  Length = 277926 BitCount = 143 ID = 417333504x
   1.900945 1  12              Rx   d 8 00 00 01 00 00 00 00 01  Length = 241910 BitCount = 125 ID = 18
   1.901941 1  311             Rx   d 8 02 00 00 00 50 00 CB 02  Length = 233910 BitCount = 121 ID = 785
   1.911941 1  112             Rx   d 8 00 00 3C 37 00 00 00 00  Length = 235911 BitCount = 122 ID = 274
   1.912535 1  102             Rx   d 8 25 03 1C 00 00 00 00 44  Length = 237910 BitCount = 123 ID = 258
   1.912773 1  103             Rx   d 8 FF FF 2C 04 5A 00 00 88  Length = 229910 BitCount = 119 ID = 259
   1.913022 1  104             Rx   d 8 B2 20 00 00 00 00 00 D2  Length = 239910 BitCount = 124 ID = 260
   1.913270 1  105             Rx   d 8 10 27 00 00 00 00 00 37  Length = 239910 BitCount = 124 ID = 261
   1.913554 1  18E00000x       Rx   d 8 00 03 E7 03 2A 00 C9 0F  Length = 275911 BitCount = 142 ID = 417333248x
   1.913840 1  18E00100x       Rx   d 8 03 20 00 01 01 00 50 01  Length = 277910 BitCount = 143 ID = 417333504x
   1.921946 1  12              Rx   d 8 00 00 01 00 00 00 00 01  Length = 241910 BitCount = 125 ID = 18
   1.922948 1  113             Rx   d 8 01 01 00 00 00 03 00 00  Length = 237910 BitCount = 123 ID = 275
   1.931947 1  318             Rx   d 8 05 00 00 00 00 00 00 00  Length = 239926 BitCount = 124 ID = 792
   1.932580 1  102             Rx   d 8 25 03 1C 00 00 00 00 44  Length = 237926 BitCount = 123 ID = 258
   1.932818 1  103             Rx   d 8 FF FF 2C 04 5A 00 00 88  Length = 229910 BitCount = 119 ID = 259
   1.933066 1  104             Rx   d 8 B2 20 00 00 00 00 00 D2  Length = 239926 BitCount = 124 ID = 260
   1.933314 1  105             Rx   d 8 10 27 00 00 00 00 00 37  Length = 239911 BitCount = 124 ID = 261
   1.933604 1  18E00000x       Rx   d 8 00 03 E7 03 28 00 C0 0F  Length = 281926 BitCount = 145 ID = 417333248x
   1.933890 1  18E00100x       Rx   d 8 03 20 00 01 01 00 50 01  Length = 277910 BitCount = 143 ID = 417333504x
   1.941824 1  221             Rx   d 8 00 5A 00 C5 03 00 00 54  Length = 227910 BitCount = 118 ID = 545
   1.942946 1  12              Rx   d 8 00 00 01 00 00 00 00 01  Length = 241910 BitCount = 125 ID = 18
   1.952639 1  102             Rx   d 8 25 03 1C 00 00 00 00 44  Length = 237910 BitCount = 123 ID = 258
   1.952877 1  103             Rx   d 8 FF FF 2C 04 5A 00 00 88  Length = 229926 BitCount = 119 ID = 259
   1.953125 1  104             Rx   d 8 B2 20 00 00 00 00 00 D2  Length = 239910 BitCount = 124 ID = 260
   1.953373 1  105             Rx   d 8 10 27 00 00 00 00 00 37  Length = 239911 BitCount = 124 ID = 261
   1.953661 1  18E00000x       Rx   d 8 00 03 E7 03 28 00 C2 0F  Length = 279910 BitCount = 144 ID = 417333248x
   1.953947 1  18E00100x       Rx   d 8 03 20 00 01 01 00 50 01  Length = 277926 BitCount = 143 ID = 417333504x
   1.963943 1  12              Rx   d 8 00 00 01 00 00 00 00 01  Length = 241910 BitCount = 125 ID = 18
   1.972686 1  102             Rx   d 8 25 03 1C 00 00 00 00 44  Length = 237910 BitCount = 123 ID = 258
   1.972924 1  103             Rx   d 8 FF FF 2C 04 5A 00 00 88  Length = 229910 BitCount = 119 ID = 259
   1.973172 1  104             Rx   d 8 B2 20 00 00 00 00 00 D2  Length = 239911 BitCount = 124 ID = 260
   1.973420 1  105             Rx   d 8 10 27 00 00 00 00 00 37  Length = 239910 BitCount = 124 ID = 261
   1.973706 1  18E00000x       Rx   d 8 00 03 E7 03 28 00 C5 0F  Length = 277910 BitCount = 143 ID = 417333248x
   1.973993 1  18E00100x       Rx   d 8 03 20 00 01 01 00 50 01  Length = 277911 BitCount = 143 ID = 417333504x
   1.984964 1  12              Rx   d 8 00 00 01 00 00 00 00 01  Length = 241910 BitCount = 125 ID = 18
   1.990669 1  303             Rx   d 8 03 03 01 02 00 00 00 00  Length = 239926 BitCount = 124 ID = 771
   1.990913 1  302             Rx   d 8 18 04 1C 00 00 17 34 00  Length = 235910 BitCount = 122 ID = 770
   1.991163 1  304             Rx   d 8 05 00 00 00 00 00 00 00  Length = 241926 BitCount = 125 ID = 772
   1.992069 1  201             Rx   d 8 00 00 C8 00 00 00 07 CF  Length = 237910 BitCount = 123 ID = 513
   1.992315 1  202             Rx   d 8 09 01 00 00 00 00 00 0A  Length = 237910 BitCount = 123 ID = 514
   1.992552 1  203             Rx   d 8 80 B0 4F EC 23 FB C0 3E  Length = 227910 BitCount = 118 ID = 515
   1.997644 1  102             Rx   d 8 25 03 1C 00 00 00 00 44  Length = 237926 BitCount = 123 ID = 258
   1.997882 1  103             Rx   d 8 FF FF 2C 04 5A 00 00 88  Length = 229911 BitCount = 119 ID = 259
   1.998130 1  104             Rx   d 8 B2 20 00 00 00 00 00 D2  Length = 239926 BitCount = 124 ID = 260
   1.998378 1  105             Rx   d 8 10 27 00 00 00 00 00 37  Length = 239910 BitCount = 124 ID = 261
   1.998669 1  18E00000x       Rx   d 8 00 03 E7 03 28 00 C0 0F  Length = 281926 BitCount = 145 ID = 417333248x
   1.998955 1  18E00100x       Rx   d 8 03 20 00 01 01 00 50 01  Length = 277911 BitCount = 143 ID = 417333504x
   2.002929 1  311             Rx   d 8 02 00 00 00 50 00 CB 02  Length = 233926 BitCount = 121 ID = 785
   2.003496 1  Statistic: D 312 R 0 XD 103 XR 0 E 0 O 0 B 10.57%
   2.003496 CAN 1 Status:chip status error active
   2.003496 2  Statistic: D 0 R 0 XD 0 XR 0 E 0 O 0 B 0.00%
   2.003496 CAN 2 Status:chip status error active
   2.005933 1  12              Rx   d 8 00 00 01 00 00 00 00 01  Length = 241910 BitCount = 125 ID = 18
   2.012777 1  102             Rx   d 8 25 03 1C 00 00 00 00 44  Length = 237910 BitCount = 123 ID = 258
   2.013015 1  103             Rx   d 8 FF FF 2C 04 5A 00 00 88  Length = 229910 BitCount = 119 ID = 259
   2.013264 1  104             Rx   d 8 B2 20 00 00 00 00 00 D2  Length = 239911 BitCount = 124 ID = 260
   2.013512 1  105             Rx   d 8 10 27 00 00 00 00 00 37  Length = 239911 BitCount = 124 ID = 261
   2.013756 1  112             Rx   d 8 00 00 3C 37 00 00 00 00  Length = 235911 BitCount = 122 ID = 274
   2.014046 1  18E00000x       Rx   d 8 00 03 E7 03 28 00 C0 0F  Length = 281910 BitCount = 145 ID = 417333248x
   2.014332 1  18E00100x       Rx   d 8 03 20 00 01 01 00 50 01  Length = 277910 BitCount = 143 ID = 417333504x
   2.022938 1  315             Rx   d 8 05 05 03 03 01 00 03 03  Length = 231926 BitCount = 120 ID = 789
   2.023946 1  113             Rx   d 8 01 01 00 00 00 03 00 00  Length = 237926 BitCount = 123 ID = 275
   2.026930 1  12              Rx   d 8 00 00 01 00 00 00 00 01  Length = 241910 BitCount = 125 ID = 18
   2.032830 1  102             Rx   d 8 25 03 1C 00 00 00 00 44  Length = 237911 BitCount = 123 ID = 258
   2.033068 1  103             Rx   d 8 FF FF 2C 04 5A 00 00 88  Length = 229910 BitCount = 119 ID = 259
   2.033316 1  104             Rx   d 8 B2 20 00 00 00 00 00 D2  Length = 239910 BitCount = 124 ID = 260
   2.033565 1  105             Rx   d 8 10 27 00 00 00 00 00 37  Length = 239911 BitCount = 124 ID = 261
   2.033855 1  18E00000x       Rx   d 8 00 03 E7 03 28 00 C0 0F  Length = 281910 BitCount = 145 ID = 417333248x
   2.034141 1  18E00100x       Rx   d 8 03 20 00 01 01 00 50 01  Length = 277910 BitCount = 143 ID = 417333504x
   2.041801 1  221             Rx   d 8 00 5A 00 C5 03 00 00 54  Length = 227926 BitCount = 118 ID = 545
   2.047942 1  12              Rx   d 8 00 00 01 00 00 00 00 01  Length = 241910 BitCount = 125 ID = 18
   2.052865 1  102             Rx   d 8 25 03 1C 00 00 00 00 44  Length = 237926 BitCount = 123 ID = 258
   2.053103 1  103             Rx   d 8 FE FF 2C 04 5A 00 00 87  Length = 229910 BitCount = 119 ID = 259
   2.053351 1  104             Rx   d 8 B2 20 00 00 00 00 00 D2  Length = 239926 BitCount = 124 ID = 260
   2.053599 1  105             Rx   d 8 10 27 00 00 00 00 00 37  Length = 239910 BitCount = 124 ID = 261
   2.053888 1  18E00000x       Rx   d 8 00 03 E7 03 2A 00 C2 0F  Length = 279926 BitCount = 144 ID = 417333248x
   2.054174 1  18E00100x       Rx   d 8 03 20 00 01 01 00 50 01  Length = 277910 BitCount = 143 ID = 417333504x
   2.068951 1  12              Rx   d 8 00 00 01 00 00 00 00 01  Length = 241910 BitCount = 125 ID = 18
   2.072898 1  102             Rx   d 8 25 03 1C 00 00 00 00 44  Length = 237910 BitCount = 123 ID = 258
   2.073136 1  103             Rx   d 8 FE FF 2C 04 5A 00 00 87  Length = 229926 BitCount = 119 ID = 259
   2.073384 1  104             Rx   d 8 B2 20 00 00 00 00 00 D2  Length = 239911 BitCount = 124 ID = 260
   2.073632 1  105             Rx   d 8 10 27 00 00 00 00 00 37  Length = 239910 BitCount = 124 ID = 261
   2.073922 1  18E00000x       Rx   d 8 00 03 E7 03 28 00 C0 0F  Length = 281910 BitCount = 145 ID = 417333248x
   2.074208 1  18E00100x       Rx   d 8 03 20 00 01 01 00 50 01  Length = 277926 BitCount = 143 ID = 417333504x
   2.089940 1  12              Rx   d 8 00 00 01 00 00 00 00 01  Length = 241910 BitCount = 125 ID = 18
   2.092290 1  204             Rx   d 8 22 FF FF FF FF FF FF FF  Length = 241910 BitCount = 125 ID = 516
   2.092528 1  205             Rx   d 8 C4 0F 11 AE 0F 05 00 00  Length = 229926 BitCount = 119 ID = 517
   2.092774 1  206             Rx   d 8 38 01 37 02 00 00 00 00  Length = 237910 BitCount = 123 ID = 518
   2.093939 1  102             Rx   d 8 25 03 1C 00 00 00 00 44  Length = 237910 BitCount = 123 ID = 258
   2.094177 1  103             Rx   d 8 FE FF 2C 04 5A 00 00 87  Length = 229910 BitCount = 119 ID = 259
   2.094425 1  104             Rx   d 8 B2 20 00 00 00 00 00 D2  Length = 239911 BitCount = 124 ID = 260
   2.094673 1  105             Rx   d 8 10 27 00 00 00 00 00 37  Length = 239910 BitCount = 124 ID = 261
   2.094963 1  18E00000x       Rx   d 8 00 03 E7 03 28 00 C0 0F  Length = 281910 BitCount = 145 ID = 417333248x
   2.095249 1  18E00100x       Rx   d 8 03 20 00 01 01 00 50 01  Length = 277911 BitCount = 143 ID = 417333504x
   2.103935 1  311             Rx   d 8 02 00 00 00 50 00 CB 02  Length = 233910 BitCount = 121 ID = 785
   2.110941 1  12              Rx   d 8 00 00 01 00 00 00 00 01  Length = 241910 BitCount = 125 ID = 18
   2.112995 1  102             Rx   d 8 25 03 1C 00 00 00 00 44  Length = 237926 BitCount = 123 ID = 258
   2.113233 1  103             Rx   d 8 FE FF 2C 04 5A 00 00 87  Length = 229910 BitCount = 119 ID = 259
   2.113481 1  104             Rx   d 8 B2 20 00 00 00 00 00 D2  Length = 239926 BitCount = 124 ID = 260
   2.113730 1  105             Rx   d 8 10 27 00 00 00 00 00 37  Length = 239910 BitCount = 124 ID = 261
   2.113974 1  112             Rx   d 8 00 00 3C 37 00 00 00 00  Length = 235911 BitCount = 122 ID = 274
   2.114262 1  18E00000x       Rx   d 8 00 03 E7 03 2A 00 C0 0F  Length = 279911 BitCount = 144 ID = 417333248x
   2.114548 1  18E00100x       Rx   d 8 03 20 00 01 01 00 50 01  Length = 277910 BitCount = 143 ID = 417333504x
   2.123942 1  113             Rx   d 8 01 01 00 00 00 03 00 00  Length = 237910 BitCount = 123 ID = 275
   2.131939 1  12              Rx   d 8 00 00 01 00 00 00 00 01  Length = 241910 BitCount = 125 ID = 18
   2.133058 1  102             Rx   d 8 25 03 1C 00 00 00 00 44  Length = 237911 BitCount = 123 ID = 258
   2.133296 1  103             Rx   d 8 FE FF 2C 04 5A 00 00 87  Length = 229926 BitCount = 119 ID = 259
   2.133544 1  104             Rx   d 8 B2 20 00 00 00 00 00 D2  Length = 239910 BitCount = 124 ID = 260
   2.133792 1  105             Rx   d 8 10 27 00 00 00 00 00 37  Length = 239926 BitCount = 124 ID = 261
   2.134082 1  18E00000x       Rx   d 8 00 03 E7 03 28 00 C0 0F  Length = 281910 BitCount = 145 ID = 417333248x
   2.134368 1  18E00100x       Rx   d 8 03 20 00 01 01 00 50 01  Length = 277926 BitCount = 143 ID = 417333504x
   2.141804 1  221             Rx   d 8 00 5A 00 C5 03 00 00 54  Length = 227911 BitCount = 118 ID = 545
   2.152946 1  12              Rx   d 8 00 00 01 00 00 00 00 01  Length = 241910 BitCount = 125 ID = 18
   2.153192 1  102             Rx   d 8 25 03 1C 00 00 00 00 44  Length = 237926 BitCount = 123 ID = 258
   2.153430 1  103             Rx   d 8 FE FF 2C 04 5A 00 00 87  Length = 229910 BitCount = 119 ID = 259
   2.153678 1  104             Rx   d 8 B2 20 00 00 00 00 00 D2  Length = 239926 BitCount = 124 ID = 260
   2.153926 1  105             Rx   d 8 10 27 00 00 00 00 00 37  Length = 239910 BitCount = 124 ID = 261
   2.154217 1  18E00000x       Rx   d 8 00 03 E7 03 1B 00 C0 0F  Length = 281926 BitCount = 145 ID = 417333248x
   2.154503 1  18E00100x       Rx   d 8 03 20 00 01 01 00 50 01  Length = 277910 BitCount = 143 ID = 417333504x
   2.173132 1  102             Rx   d 8 25 03 1C 00 00 00 00 44  Length = 237910 BitCount = 123 ID = 258
   2.173370 1  103             Rx   d 8 FE FF 2C 04 5A 00 00 87  Length = 229910 BitCount = 119 ID = 259
   2.173618 1  104             Rx   d 8 B2 20 00 00 00 00 00 D2  Length = 239926 BitCount = 124 ID = 260
   2.173866 1  105             Rx   d 8 10 27 00 00 00 00 00 37  Length = 239911 BitCount = 124 ID = 261
   2.174116 1  12              Rx   d 8 00 00 01 00 00 00 00 01  Length = 241910 BitCount = 125 ID = 18
   2.174403 1  18E00000x       Rx   d 8 00 03 E7 03 28 00 C9 0F  Length = 277910 BitCount = 143 ID = 417333248x
   2.174689 1  18E00100x       Rx   d 8 03 20 00 01 01 00 50 01  Length = 277911 BitCount = 143 ID = 417333504x
   2.189126 1  18E00001x       Rx   d 8 60 00 2C 04 F3 01 2C 04  Length = 271910 BitCount = 140 ID = 417333249x
   2.190132 1  305             Rx   d 8 00 33 01 22 08 02 02 00  Length = 233910 BitCount = 121 ID = 773
   2.190370 1  306             Rx   d 8 00 33 01 22 08 03 01 01  Length = 229910 BitCount = 119 ID = 774
   2.190660 1  18E0000Bx       Rx   d 8 00 00 00 00 00 00 01 00  Length = 281911 BitCount = 145 ID = 417333259x
   2.191110 1  303             Rx   d 8 03 03 01 02 00 00 00 00  Length = 239910 BitCount = 124 ID = 771
   2.191355 1  302             Rx   d 8 18 04 1C 00 00 17 34 00  Length = 235910 BitCount = 122 ID = 770
   2.191589 1  304             Rx   d 8 01 30 33 4E 4D 45 30 38  Length = 225910 BitCount = 117 ID = 772
   2.192507 1  201             Rx   d 8 00 00 C8 00 00 00 07 CF  Length = 237926 BitCount = 123 ID = 513
   2.192753 1  202             Rx   d 8 09 01 00 00 00 00 00 0A  Length = 237910 BitCount = 123 ID = 514
   2.192991 1  203             Rx   d 8 81 AE 8F F0 23 FC 04 3F  Length = 229926 BitCount = 119 ID = 515
   2.194929 1  102             Rx   d 8 25 03 1C 00 00 00 00 44  Length = 237926 BitCount = 123 ID = 258
   2.195179 1  12              Rx   d 8 00 00 01 00 00 00 00 01  Length = 241910 BitCount = 125 ID = 18
   2.195418 1  103             Rx   d 8 FE FF 2C 04 5A 00 00 87  Length = 229926 BitCount = 119 ID = 259
   2.195666 1  104             Rx   d 8 B2 20 00 00 00 00 00 D2  Length = 239910 BitCount = 124 ID = 260
   2.195914 1  105             Rx   d 8 10 27 00 00 00 00 00 37  Length = 239926 BitCount = 124 ID = 261
   2.196204 1  18E00000x       Rx   d 8 00 03 E7 03 28 00 C0 0F  Length = 281910 BitCount = 145 ID = 417333248x
   2.196490 1  18E00100x       Rx   d 8 03 20 00 01 01 00 50 01  Length = 277926 BitCount = 143 ID = 417333504x
   2.204932 1  311             Rx   d 8 02 00 00 00 50 00 CB 02  Length = 233911 BitCount = 121 ID = 785
   2.213215 1  102             Rx   d 8 25 03 1C 00 00 00 00 44  Length = 237910 BitCount = 123 ID = 258
   2.213453 1  103             Rx   d 8 FE FF 2C 04 5A 00 00 87  Length = 229910 BitCount = 119 ID = 259
   2.213701 1  104             Rx   d 8 B2 20 00 00 00 00 00 D2  Length = 239911 BitCount = 124 ID = 260
   2.213949 1  105             Rx   d 8 10 27 00 00 00 00 00 37  Length = 239910 BitCount = 124 ID = 261
   2.214237 1  18E00000x       Rx   d 8 00 03 E7 03 28 00 C2 0F  Length = 279910 BitCount = 144 ID = 417333248x
   2.214523 1  18E00100x       Rx   d 8 03 20 00 01 01 00 50 01  Length = 277911 BitCount = 143 ID = 417333504x
   2.214935 1  112             Rx   d 8 00 00 3C 37 00 00 00 00  Length = 235910 BitCount = 122 ID = 274
   2.215935 1  12              Rx   d 8 00 00 01 00 00 00 00 01  Length = 241910 BitCount = 125 ID = 18
   2.223927 1  315             Rx   d 8 05 05 03 03 01 00 03 03  Length = 231911 BitCount = 120 ID = 789
   2.224953 1  113             Rx   d 8 01 01 00 00 00 03 00 00  Length = 237910 BitCount = 123 ID = 275
   2.232943 1  317             Rx   d 8 50 35 15 32 33 00 00 00  Length = 223911 BitCount = 116 ID = 791
   2.233281 1  102             Rx   d 8 25 03 1C 00 00 00 00 44  Length = 237910 BitCount = 123 ID = 258
   2.233519 1  103             Rx   d 8 FE FF 2C 04 5A 00 00 87  Length = 229911 BitCount = 119 ID = 259
   2.233767 1  104             Rx   d 8 B2 20 00 00 00 00 00 D2  Length = 239926 BitCount = 124 ID = 260
   2.234015 1  105             Rx   d 8 10 27 00 00 00 00 00 37  Length = 239910 BitCount = 124 ID = 261
   2.234304 1  18E00000x       Rx   d 8 00 03 E7 03 28 00 C2 0F  Length = 279911 BitCount = 144 ID = 417333248x
   2.234590 1  18E00100x       Rx   d 8 03 20 00 01 01 00 50 01  Length = 277910 BitCount = 143 ID = 417333504x
   2.236966 1  12              Rx   d 8 00 00 01 00 00 00 00 01  Length = 241910 BitCount = 125 ID = 18
   2.241970 1  221             Rx   d 8 00 5A 00 C5 03 00 00 54  Length = 227910 BitCount = 118 ID = 545
   2.253318 1  102             Rx   d 8 25 03 1C 00 00 00 00 44  Length = 237910 BitCount = 123 ID = 258
