date Son Mai 5 10:50:13.543 2024
base hex  timestamps absolute
internal events logged
// version 15.4.0
// Measurement UUID: a8f40c40-a305-4923-967c-2f306abcba9e
Begin TriggerBlock Son Mai 5 10:50:13.543 2024
   0.000000 Start of measurement
   0.002240 1  105             Rx   d 8 10 27 00 00 00 00 00 37  Length = 239910 BitCount = 124 ID = 261
   0.002528 1  18E00000x       Rx   d 8 00 03 E7 03 2A 00 22 0F  Length = 279911 BitCount = 144 ID = 417333248x
   0.002814 1  18E00100x       Rx   d 8 03 24 00 01 01 00 50 01  Length = 277910 BitCount = 143 ID = 417333504x
   0.016222 CAN 1 Status:chip status error active
   0.018087 1  311             Rx   d 8 02 00 00 00 4C 00 CB 02  Length = 231910 BitCount = 120 ID = 785
   0.020890 1  204             Rx   d 8 E1 FF 37 36 37 3B 41 FF  Length = 227926 BitCount = 118 ID = 516
   0.021128 1  205             Rx   d 8 23 0F 12 0C 0F 05 00 00  Length = 229910 BitCount = 119 ID = 517
   0.021370 1  206             Rx   d 8 36 04 35 02 00 00 00 00  Length = 233925 BitCount = 121 ID = 518
   0.026466 1  102             Rx   d 8 04 03 1C 00 00 00 00 23  Length = 233926 BitCount = 121 ID = 258
   0.026705 1  103             Rx   d 8 FF FF 2C 04 6E 00 00 9C  Length = 229911 BitCount = 119 ID = 259
   0.026949 1  104             Rx   d 8 D2 19 00 00 00 00 00 EB  Length = 235926 BitCount = 122 ID = 260
   0.027197 1  105             Rx   d 8 10 27 00 00 00 00 00 37  Length = 239910 BitCount = 124 ID = 261
   0.027487 1  18E00000x       Rx   d 8 00 03 E7 03 2A 00 24 0F  Length = 281925 BitCount = 145 ID = 417333248x
   0.027773 1  18E00100x       Rx   d 8 03 24 00 01 01 00 50 01  Length = 277910 BitCount = 143 ID = 417333504x
   0.028089 1  112             Rx   d 8 00 00 3A 34 00 00 00 00  Length = 235910 BitCount = 122 ID = 274
   0.028363 1  221             Rx   d 8 00 45 00 07 05 00 00 4E  Length = 231926 BitCount = 120 ID = 545
   0.038111 1  113             Rx   d 8 01 01 00 00 00 00 00 00  Length = 239910 BitCount = 124 ID = 275
   0.041591 1  102             Rx   d 8 04 03 1C 00 00 00 00 23  Length = 233925 BitCount = 121 ID = 258
   0.041829 1  103             Rx   d 8 FF FF 2C 04 6E 00 00 9C  Length = 229910 BitCount = 119 ID = 259
   0.042073 1  104             Rx   d 8 D2 19 00 00 00 00 00 EB  Length = 235926 BitCount = 122 ID = 260
   0.042322 1  105             Rx   d 8 10 27 00 00 00 00 00 37  Length = 239911 BitCount = 124 ID = 261
   0.042610 1  18E00000x       Rx   d 8 00 03 E7 03 2A 00 22 0F  Length = 279926 BitCount = 144 ID = 417333248x
   0.042896 1  18E00100x       Rx   d 8 03 24 00 01 01 00 50 01  Length = 277911 BitCount = 143 ID = 417333504x
   0.061661 1  102             Rx   d 8 04 03 1C 00 00 00 00 23  Length = 233910 BitCount = 121 ID = 258
   0.061899 1  103             Rx   d 8 FF FF 2C 04 6E 00 00 9C  Length = 229910 BitCount = 119 ID = 259
   0.062143 1  104             Rx   d 8 D2 19 00 00 00 00 00 EB  Length = 235910 BitCount = 122 ID = 260
   0.062392 1  105             Rx   d 8 10 27 00 00 00 00 00 37  Length = 239911 BitCount = 124 ID = 261
   0.062680 1  18E00000x       Rx   d 8 00 03 E7 03 2A 00 22 0F  Length = 279910 BitCount = 144 ID = 417333248x
   0.062966 1  18E00100x       Rx   d 8 03 24 00 01 01 00 50 01  Length = 277910 BitCount = 143 ID = 417333504x
   0.081709 1  102             Rx   d 8 04 03 1C 00 00 00 00 23  Length = 233910 BitCount = 121 ID = 258
   0.081945 1  103             Rx   d 8 FE FF 2C 04 6E 00 00 9B  Length = 227925 BitCount = 118 ID = 259
   0.082189 1  104             Rx   d 8 D2 19 00 00 00 00 00 EB  Length = 235910 BitCount = 122 ID = 260
   0.082438 1  105             Rx   d 8 10 27 00 00 00 00 00 37  Length = 239910 BitCount = 124 ID = 261
   0.082728 1  18E00000x       Rx   d 8 00 03 E7 03 2A 00 24 0F  Length = 281911 BitCount = 145 ID = 417333248x
   0.083014 1  18E00100x       Rx   d 8 03 24 00 01 01 00 50 01  Length = 277926 BitCount = 143 ID = 417333504x
   0.101751 1  102             Rx   d 8 04 03 1C 00 00 00 00 23  Length = 233910 BitCount = 121 ID = 258
   0.101987 1  103             Rx   d 8 FE FF 2C 04 6E 00 00 9B  Length = 227910 BitCount = 118 ID = 259
   0.102231 1  104             Rx   d 8 D2 19 00 00 00 00 00 EB  Length = 235925 BitCount = 122 ID = 260
   0.102480 1  105             Rx   d 8 10 27 00 00 00 00 00 37  Length = 239910 BitCount = 124 ID = 261
   0.102768 1  18E00000x       Rx   d 8 00 03 E7 03 2A 00 22 0F  Length = 279926 BitCount = 144 ID = 417333248x
   0.103054 1  18E00100x       Rx   d 8 03 24 00 01 01 00 50 01  Length = 277910 BitCount = 143 ID = 417333504x
   0.119085 1  311             Rx   d 8 02 00 00 00 4C 00 CB 02  Length = 231926 BitCount = 120 ID = 785
   0.119728 1  303             Rx   d 8 03 03 01 02 00 00 00 00  Length = 239911 BitCount = 124 ID = 771
   0.119966 1  302             Rx   d 8 18 05 05 00 10 34 39 00  Length = 229910 BitCount = 119 ID = 770
   0.120216 1  304             Rx   d 8 05 00 00 00 00 00 00 00  Length = 241910 BitCount = 125 ID = 772
   0.121126 1  201             Rx   d 8 00 00 C8 00 00 00 07 CF  Length = 237911 BitCount = 123 ID = 513
   0.121372 1  202             Rx   d 8 09 01 00 00 00 00 00 0A  Length = 237910 BitCount = 123 ID = 514
   0.121610 1  203             Rx   d 8 80 0E CF C3 03 F1 38 3C  Length = 229925 BitCount = 119 ID = 515
   0.121850 1  221             Rx   d 8 00 45 00 07 05 00 00 4E  Length = 231910 BitCount = 120 ID = 545
   0.122780 1  102             Rx   d 8 04 03 1C 00 00 00 00 23  Length = 233910 BitCount = 121 ID = 258
   0.123016 1  103             Rx   d 8 FE FF 2C 04 6E 00 00 9B  Length = 227911 BitCount = 118 ID = 259
   0.123260 1  104             Rx   d 8 D2 19 00 00 00 00 00 EB  Length = 235910 BitCount = 122 ID = 260
   0.123509 1  105             Rx   d 8 10 27 00 00 00 00 00 37  Length = 239910 BitCount = 124 ID = 261
   0.123793 1  18E00000x       Rx   d 8 00 03 E7 03 2A 00 29 0F  Length = 275911 BitCount = 142 ID = 417333248x
   0.124079 1  18E00100x       Rx   d 8 03 24 00 01 01 00 50 01  Length = 277910 BitCount = 143 ID = 417333504x
   0.129093 1  112             Rx   d 8 00 00 3A 34 00 00 00 00  Length = 235926 BitCount = 122 ID = 274
   0.139099 1  113             Rx   d 8 01 01 00 00 00 00 00 00  Length = 239926 BitCount = 124 ID = 275
   0.141817 1  102             Rx   d 8 04 03 1C 00 00 00 00 23  Length = 233910 BitCount = 121 ID = 258
   0.142053 1  103             Rx   d 8 FE FF 2C 04 6E 00 00 9B  Length = 227926 BitCount = 118 ID = 259
   0.142297 1  104             Rx   d 8 D2 19 00 00 00 00 00 EB  Length = 235910 BitCount = 122 ID = 260
   0.142545 1  105             Rx   d 8 10 27 00 00 00 00 00 37  Length = 239925 BitCount = 124 ID = 261
   0.142831 1  18E00000x       Rx   d 8 00 03 E7 03 2D 00 24 0F  Length = 277910 BitCount = 143 ID = 417333248x
   0.143118 1  18E00100x       Rx   d 8 03 24 00 01 01 00 50 01  Length = 277926 BitCount = 143 ID = 417333504x
   0.161875 1  102             Rx   d 8 04 03 1C 00 00 00 00 23  Length = 233910 BitCount = 121 ID = 258
   0.162111 1  103             Rx   d 8 FE FF 2C 04 6E 00 00 9B  Length = 227911 BitCount = 118 ID = 259
   0.162355 1  104             Rx   d 8 D2 19 00 00 00 00 00 EB  Length = 235910 BitCount = 122 ID = 260
   0.162603 1  105             Rx   d 8 10 27 00 00 00 00 00 37  Length = 239910 BitCount = 124 ID = 261
   0.162893 1  18E00000x       Rx   d 8 00 03 E7 03 2A 00 24 0F  Length = 281910 BitCount = 145 ID = 417333248x
   0.163180 1  18E00100x       Rx   d 8 03 24 00 01 01 00 50 01  Length = 277910 BitCount = 143 ID = 417333504x
   0.181931 1  102             Rx   d 8 04 03 1C 00 00 00 00 23  Length = 233910 BitCount = 121 ID = 258
   0.182167 1  103             Rx   d 8 FE FF 2C 04 6E 00 00 9B  Length = 227910 BitCount = 118 ID = 259
   0.182411 1  104             Rx   d 8 D2 19 00 00 00 00 00 EB  Length = 235911 BitCount = 122 ID = 260
   0.182659 1  105             Rx   d 8 10 27 00 00 00 00 00 37  Length = 239910 BitCount = 124 ID = 261
   0.182949 1  18E00000x       Rx   d 8 00 03 E7 03 2A 00 24 0F  Length = 281910 BitCount = 145 ID = 417333248x
   0.183190 1  315             Rx   d 8 05 05 03 03 02 00 03 03  Length = 231925 BitCount = 120 ID = 789
   0.183476 1  18E00100x       Rx   d 8 03 24 00 01 01 00 50 01  Length = 277910 BitCount = 143 ID = 417333504x
   0.201975 1  102             Rx   d 8 04 03 1C 00 00 00 00 23  Length = 233910 BitCount = 121 ID = 258
   0.202211 1  103             Rx   d 8 FE FF 2C 04 6E 00 00 9B  Length = 227926 BitCount = 118 ID = 259
   0.202455 1  104             Rx   d 8 D2 19 00 00 00 00 00 EB  Length = 235911 BitCount = 122 ID = 260
   0.202703 1  105             Rx   d 8 10 27 00 00 00 00 00 37  Length = 239926 BitCount = 124 ID = 261
   0.202992 1  18E00000x       Rx   d 8 00 03 E7 03 2A 00 22 0F  Length = 279910 BitCount = 144 ID = 417333248x
   0.203278 1  18E00100x       Rx   d 8 03 24 00 01 01 00 50 01  Length = 277925 BitCount = 143 ID = 417333504x
   0.220081 1  311             Rx   d 8 02 00 00 00 4C 00 CB 02  Length = 231910 BitCount = 120 ID = 785
   0.221171 1  221             Rx   d 8 00 45 00 07 05 00 00 4E  Length = 231910 BitCount = 120 ID = 545
   0.221421 1  204             Rx   d 8 22 FF FF FF FF FF FF FF  Length = 241925 BitCount = 125 ID = 516
   0.221659 1  205             Rx   d 8 23 0F 12 0C 0F 05 00 00  Length = 229910 BitCount = 119 ID = 517
   0.221904 1  206             Rx   d 8 35 04 35 02 00 00 00 00  Length = 235926 BitCount = 122 ID = 518
   0.226944 1  102             Rx   d 8 04 03 1C 00 00 00 00 23  Length = 233926 BitCount = 121 ID = 258
   0.227180 1  103             Rx   d 8 FE FF 2C 04 6E 00 00 9B  Length = 227910 BitCount = 118 ID = 259
   0.227424 1  104             Rx   d 8 D2 19 00 00 00 00 00 EB  Length = 235925 BitCount = 122 ID = 260
   0.227672 1  105             Rx   d 8 10 27 00 00 00 00 00 37  Length = 239910 BitCount = 124 ID = 261
   0.227963 1  18E00000x       Rx   d 8 00 03 E7 03 2A 00 24 0F  Length = 281926 BitCount = 145 ID = 417333248x
   0.228249 1  18E00100x       Rx   d 8 03 24 00 01 01 00 50 01  Length = 277910 BitCount = 143 ID = 417333504x
   0.230087 1  112             Rx   d 8 00 00 3A 34 00 00 00 00  Length = 235910 BitCount = 122 ID = 274
   0.240092 1  113             Rx   d 8 01 01 00 00 00 00 00 00  Length = 239910 BitCount = 124 ID = 275
   0.242053 1  102             Rx   d 8 04 03 1C 00 00 00 00 23  Length = 233926 BitCount = 121 ID = 258
   0.242289 1  103             Rx   d 8 FE FF 2C 04 6E 00 00 9B  Length = 227911 BitCount = 118 ID = 259
   0.242533 1  104             Rx   d 8 D2 19 00 00 00 00 00 EB  Length = 235910 BitCount = 122 ID = 260
   0.242781 1  105             Rx   d 8 10 27 00 00 00 00 00 37  Length = 239910 BitCount = 124 ID = 261
   0.243069 1  18E00000x       Rx   d 8 00 03 E7 03 2A 00 22 0F  Length = 279911 BitCount = 144 ID = 417333248x
   0.243355 1  18E00100x       Rx   d 8 03 24 00 01 01 00 50 01  Length = 277910 BitCount = 143 ID = 417333504x
   0.258079 1  317             Rx   d 8 50 35 25 32 33 00 00 00  Length = 227910 BitCount = 118 ID = 791
   0.262085 1  102             Rx   d 8 04 03 1C 00 00 00 00 23  Length = 233910 BitCount = 121 ID = 258
   0.262321 1  103             Rx   d 8 FE FF 2C 04 6E 00 00 9B  Length = 227926 BitCount = 118 ID = 259
   0.262565 1  104             Rx   d 8 D2 19 00 00 00 00 00 EB  Length = 235911 BitCount = 122 ID = 260
   0.262814 1  105             Rx   d 8 10 27 00 00 00 00 00 37  Length = 239926 BitCount = 124 ID = 261
   0.263102 1  18E00000x       Rx   d 8 00 03 E7 03 2A 00 22 0F  Length = 279910 BitCount = 144 ID = 417333248x
   0.263388 1  18E00100x       Rx   d 8 03 24 00 01 01 00 50 01  Length = 277926 BitCount = 143 ID = 417333504x
   0.282133 1  102             Rx   d 8 04 03 1C 00 00 00 00 23  Length = 233910 BitCount = 121 ID = 258
   0.282369 1  103             Rx   d 8 FE FF 2C 04 6E 00 00 9B  Length = 227910 BitCount = 118 ID = 259
   0.282613 1  104             Rx   d 8 D2 19 00 00 00 00 00 EB  Length = 235911 BitCount = 122 ID = 260
   0.282862 1  105             Rx   d 8 10 27 00 00 00 00 00 37  Length = 239910 BitCount = 124 ID = 261
   0.283146 1  18E00000x       Rx   d 8 00 03 E7 03 2A 00 29 0F  Length = 275910 BitCount = 142 ID = 417333248x
   0.283432 1  18E00100x       Rx   d 8 03 24 00 01 01 00 50 01  Length = 277911 BitCount = 143 ID = 417333504x
   0.302195 1  102             Rx   d 8 04 03 1C 00 00 00 00 23  Length = 233925 BitCount = 121 ID = 258
   0.302431 1  103             Rx   d 8 FE FF 2C 04 6E 00 00 9B  Length = 227910 BitCount = 118 ID = 259
   0.302675 1  104             Rx   d 8 D2 19 00 00 00 00 00 EB  Length = 235926 BitCount = 122 ID = 260
   0.302924 1  105             Rx   d 8 10 27 00 00 00 00 00 37  Length = 239911 BitCount = 124 ID = 261
   0.303214 1  18E00000x       Rx   d 8 00 03 E7 03 2A 00 24 0F  Length = 281910 BitCount = 145 ID = 417333248x
   0.303500 1  18E00100x       Rx   d 8 03 24 00 01 01 00 50 01  Length = 277910 BitCount = 143 ID = 417333504x
   0.318191 1  18E00001x       Rx   d 8 77 00 2C 04 F3 01 2C 04  Length = 271910 BitCount = 140 ID = 417333249x
   0.319201 1  305             Rx   d 8 00 33 01 22 08 02 02 00  Length = 233910 BitCount = 121 ID = 773
   0.319439 1  306             Rx   d 8 00 33 01 22 08 03 01 01  Length = 229910 BitCount = 119 ID = 774
   0.319729 1  18E0000Bx       Rx   d 8 00 00 00 00 00 00 01 00  Length = 281911 BitCount = 145 ID = 417333259x
   0.320200 1  303             Rx   d 8 03 03 01 02 00 00 00 00  Length = 239910 BitCount = 124 ID = 771
   0.320438 1  302             Rx   d 8 18 05 05 00 10 34 39 00  Length = 229910 BitCount = 119 ID = 770
   0.320672 1  304             Rx   d 8 01 30 33 4E 4D 45 30 38  Length = 225910 BitCount = 117 ID = 772
   0.321092 1  311             Rx   d 8 02 00 00 00 4C 00 CB 02  Length = 231911 BitCount = 120 ID = 785
   0.321332 1  221             Rx   d 8 00 45 00 07 05 00 00 4E  Length = 231911 BitCount = 120 ID = 545
   0.321642 1  201             Rx   d 8 00 00 C8 00 00 00 07 CF  Length = 237910 BitCount = 123 ID = 513
   0.321888 1  202             Rx   d 8 09 01 00 00 00 00 00 0A  Length = 237926 BitCount = 123 ID = 514
   0.322124 1  203             Rx   d 8 81 0C CF C7 13 F2 7C 3C  Length = 227910 BitCount = 118 ID = 515
   0.324023 1  102             Rx   d 8 04 03 1C 00 00 00 00 23  Length = 233910 BitCount = 121 ID = 258
   0.324259 1  103             Rx   d 8 FE FF 2C 04 6E 00 00 9B  Length = 227910 BitCount = 118 ID = 259
   0.324503 1  104             Rx   d 8 D2 19 00 00 00 00 00 EB  Length = 235910 BitCount = 122 ID = 260
   0.324751 1  105             Rx   d 8 10 27 00 00 00 00 00 37  Length = 239910 BitCount = 124 ID = 261
   0.325041 1  18E00000x       Rx   d 8 00 03 E7 03 2A 00 24 0F  Length = 281911 BitCount = 145 ID = 417333248x
   0.325327 1  18E00100x       Rx   d 8 03 24 00 01 01 00 50 01  Length = 277910 BitCount = 143 ID = 417333504x
   0.331087 1  112             Rx   d 8 00 00 3A 34 00 00 00 00  Length = 235911 BitCount = 122 ID = 274
   0.341117 1  113             Rx   d 8 01 01 00 00 00 00 00 00  Length = 239911 BitCount = 124 ID = 275
   0.342291 1  102             Rx   d 8 04 03 1C 00 00 00 00 23  Length = 233910 BitCount = 121 ID = 258
   0.342527 1  103             Rx   d 8 FE FF 2C 04 6E 00 00 9B  Length = 227910 BitCount = 118 ID = 259
   0.342771 1  104             Rx   d 8 D2 19 00 00 00 00 00 EB  Length = 235910 BitCount = 122 ID = 260
   0.343019 1  105             Rx   d 8 10 27 00 00 00 00 00 37  Length = 239910 BitCount = 124 ID = 261
   0.343308 1  18E00000x       Rx   d 8 00 03 E7 03 2A 00 22 0F  Length = 279911 BitCount = 144 ID = 417333248x
   0.343594 1  18E00100x       Rx   d 8 03 24 00 01 01 00 50 01  Length = 277910 BitCount = 143 ID = 417333504x
   0.362317 1  102             Rx   d 8 04 03 1C 00 00 00 00 23  Length = 233926 BitCount = 121 ID = 258
   0.362553 1  103             Rx   d 8 FE FF 2C 04 6E 00 00 9B  Length = 227910 BitCount = 118 ID = 259
   0.362797 1  104             Rx   d 8 D2 19 00 00 00 00 00 EB  Length = 235925 BitCount = 122 ID = 260
   0.363045 1  105             Rx   d 8 10 27 00 00 00 00 00 37  Length = 239910 BitCount = 124 ID = 261
   0.363334 1  18E00000x       Rx   d 8 00 03 E7 03 2A 00 22 0F  Length = 279926 BitCount = 144 ID = 417333248x
   0.363620 1  18E00100x       Rx   d 8 03 24 00 01 01 00 50 01  Length = 277910 BitCount = 143 ID = 417333504x
   0.382363 1  102             Rx   d 8 04 03 1C 00 00 00 00 23  Length = 233911 BitCount = 121 ID = 258
   0.382599 1  103             Rx   d 8 FE FF 2C 04 6E 00 00 9B  Length = 227910 BitCount = 118 ID = 259
   0.382843 1  104             Rx   d 8 D2 19 00 00 00 00 00 EB  Length = 235910 BitCount = 122 ID = 260
   0.383091 1  105             Rx   d 8 10 27 00 00 00 00 00 37  Length = 239910 BitCount = 124 ID = 261
   0.383380 1  18E00000x       Rx   d 8 00 03 E7 03 2A 00 22 0F  Length = 279910 BitCount = 144 ID = 417333248x
   0.383666 1  18E00100x       Rx   d 8 03 24 00 01 01 00 50 01  Length = 277911 BitCount = 143 ID = 417333504x
   0.384082 1  315             Rx   d 8 05 05 03 03 02 00 03 03  Length = 231926 BitCount = 120 ID = 789
   0.402405 1  102             Rx   d 8 04 03 1C 00 00 00 00 23  Length = 233910 BitCount = 121 ID = 258
   0.402641 1  103             Rx   d 8 FE FF 2C 04 6E 00 00 9B  Length = 227911 BitCount = 118 ID = 259
   0.402885 1  104             Rx   d 8 D2 19 00 00 00 00 00 EB  Length = 235910 BitCount = 122 ID = 260
   0.403133 1  105             Rx   d 8 10 27 00 00 00 00 00 37  Length = 239910 BitCount = 124 ID = 261
   0.403422 1  18E00000x       Rx   d 8 00 03 E7 03 2A 00 22 0F  Length = 279910 BitCount = 144 ID = 417333248x
   0.403708 1  18E00100x       Rx   d 8 03 24 00 01 01 00 50 01  Length = 277910 BitCount = 143 ID = 417333504x
   0.421271 1  221             Rx   d 8 00 45 00 07 05 00 00 4E  Length = 231925 BitCount = 120 ID = 545
   0.421831 1  204             Rx   d 8 E0 35 35 35 36 FF FF FF  Length = 229910 BitCount = 119 ID = 516
   0.422069 1  205             Rx   d 8 23 0F 12 0C 0F 05 00 00  Length = 229911 BitCount = 119 ID = 517
   0.422311 1  206             Rx   d 8 36 04 35 02 00 00 00 00  Length = 233926 BitCount = 121 ID = 518
   0.422552 1  311             Rx   d 8 02 00 00 00 4C 00 CB 02  Length = 231910 BitCount = 120 ID = 785
   0.427404 1  102             Rx   d 8 04 03 1C 00 00 00 00 23  Length = 233910 BitCount = 121 ID = 258
   0.427640 1  103             Rx   d 8 FE FF 2C 04 6E 00 00 9B  Length = 227910 BitCount = 118 ID = 259
   0.427884 1  104             Rx   d 8 D2 19 00 00 00 00 00 EB  Length = 235910 BitCount = 122 ID = 260
   0.428132 1  105             Rx   d 8 10 27 00 00 00 00 00 37  Length = 239911 BitCount = 124 ID = 261
   0.428421 1  18E00000x       Rx   d 8 00 03 E7 03 2A 00 22 0F  Length = 279910 BitCount = 144 ID = 417333248x
   0.428707 1  18E00100x       Rx   d 8 03 24 00 01 01 00 50 01  Length = 277910 BitCount = 143 ID = 417333504x
   0.432103 1  112             Rx   d 8 00 00 3A 34 00 00 00 00  Length = 235911 BitCount = 122 ID = 274
   0.442090 1  113             Rx   d 8 01 01 00 00 00 00 00 00  Length = 239911 BitCount = 124 ID = 275
   0.442519 1  102             Rx   d 8 04 03 1C 00 00 00 00 23  Length = 233910 BitCount = 121 ID = 258
   0.442755 1  103             Rx   d 8 FE FF 2C 04 6E 00 00 9B  Length = 227910 BitCount = 118 ID = 259
   0.442999 1  104             Rx   d 8 D2 19 00 00 00 00 00 EB  Length = 235911 BitCount = 122 ID = 260
   0.443247 1  105             Rx   d 8 10 27 00 00 00 00 00 37  Length = 239910 BitCount = 124 ID = 261
   0.443535 1  18E00000x       Rx   d 8 00 03 E7 03 2A 00 22 0F  Length = 279910 BitCount = 144 ID = 417333248x
   0.443821 1  18E00100x       Rx   d 8 03 24 00 01 01 00 50 01  Length = 277910 BitCount = 143 ID = 417333504x
   0.458077 1  318             Rx   d 8 00 15 4B 5D 85 01 00 00  Length = 227910 BitCount = 118 ID = 792
   0.462563 1  102             Rx   d 8 04 03 1C 00 00 00 00 23  Length = 233911 BitCount = 121 ID = 258
   0.462799 1  103             Rx   d 8 FE FF 2C 04 6E 00 00 9B  Length = 227926 BitCount = 118 ID = 259
   0.463043 1  104             Rx   d 8 D2 19 00 00 00 00 00 EB  Length = 235910 BitCount = 122 ID = 260
   0.463292 1  105             Rx   d 8 10 27 00 00 00 00 00 37  Length = 239926 BitCount = 124 ID = 261
   0.463580 1  18E00000x       Rx   d 8 00 03 E7 03 2A 00 22 0F  Length = 279910 BitCount = 144 ID = 417333248x
   0.463866 1  18E00100x       Rx   d 8 03 24 00 01 01 00 50 01  Length = 277925 BitCount = 143 ID = 417333504x
   0.482595 1  102             Rx   d 8 04 03 1C 00 00 00 00 23  Length = 233911 BitCount = 121 ID = 258
   0.482831 1  103             Rx   d 8 FE FF 2C 04 6E 00 00 9B  Length = 227910 BitCount = 118 ID = 259
   0.483075 1  104             Rx   d 8 D2 19 00 00 00 00 00 EB  Length = 235926 BitCount = 122 ID = 260
   0.483324 1  105             Rx   d 8 10 27 00 00 00 00 00 37  Length = 239911 BitCount = 124 ID = 261
   0.483610 1  18E00000x       Rx   d 8 00 03 E7 03 1B 00 24 0F  Length = 277926 BitCount = 143 ID = 417333248x
   0.483896 1  18E00100x       Rx   d 8 03 24 00 01 01 00 50 01  Length = 277910 BitCount = 143 ID = 417333504x
   0.494078 1  314             Rx   d 8 33 30 30 30 36 41 00 00  Length = 233926 BitCount = 121 ID = 788
   0.502642 1  102             Rx   d 8 04 03 1C 00 00 00 00 23  Length = 233910 BitCount = 121 ID = 258
   0.502878 1  103             Rx   d 8 FE FF 2C 04 6E 00 00 9B  Length = 227911 BitCount = 118 ID = 259
   0.503123 1  104             Rx   d 8 D2 19 00 00 00 00 00 EB  Length = 235910 BitCount = 122 ID = 260
   0.503371 1  105             Rx   d 8 10 27 00 00 00 00 00 37  Length = 239910 BitCount = 124 ID = 261
   0.503661 1  18E00000x       Rx   d 8 00 03 E7 03 2A 00 24 0F  Length = 281911 BitCount = 145 ID = 417333248x
   0.503947 1  18E00100x       Rx   d 8 03 24 00 01 01 00 50 01  Length = 277910 BitCount = 143 ID = 417333504x
   0.520640 1  303             Rx   d 8 03 03 01 02 00 00 00 00  Length = 239910 BitCount = 124 ID = 771
   0.520878 1  302             Rx   d 8 18 05 05 00 10 34 3A 00  Length = 229926 BitCount = 119 ID = 770
   0.521110 1  304             Rx   d 8 02 54 51 4C 30 30 31 47  Length = 223911 BitCount = 116 ID = 772
   0.521350 1  221             Rx   d 8 00 45 00 07 05 00 00 4E  Length = 231926 BitCount = 120 ID = 545
   0.522057 1  201             Rx   d 8 00 00 C8 00 00 00 07 CF  Length = 237910 BitCount = 123 ID = 513
   0.522303 1  202             Rx   d 8 09 01 00 00 00 00 00 0A  Length = 237910 BitCount = 123 ID = 514
   0.522539 1  203             Rx   d 8 82 21 0F C8 E3 F0 50 3C  Length = 227910 BitCount = 118 ID = 515
   0.523107 1  311             Rx   d 8 02 00 00 00 4C 00 CB 02  Length = 231910 BitCount = 120 ID = 785
   0.525107 1  102             Rx   d 8 04 03 1C 00 00 00 00 23  Length = 233911 BitCount = 121 ID = 258
   0.525343 1  103             Rx   d 8 FE FF 2C 04 6E 00 00 9B  Length = 227910 BitCount = 118 ID = 259
   0.525587 1  104             Rx   d 8 D2 19 00 00 00 00 00 EB  Length = 235910 BitCount = 122 ID = 260
   0.525836 1  105             Rx   d 8 10 27 00 00 00 00 00 37  Length = 239911 BitCount = 124 ID = 261
   0.526126 1  18E00000x       Rx   d 8 00 03 E7 03 2A 00 24 0F  Length = 281910 BitCount = 145 ID = 417333248x
   0.526412 1  18E00100x       Rx   d 8 03 24 00 01 01 00 50 01  Length = 277910 BitCount = 143 ID = 417333504x
   0.533094 1  112             Rx   d 8 00 00 3A 34 00 00 00 00  Length = 235910 BitCount = 122 ID = 274
   0.542734 1  102             Rx   d 8 04 03 1C 00 00 00 00 23  Length = 233910 BitCount = 121 ID = 258
   0.542973 1  103             Rx   d 8 FF FF 2C 04 6E 00 00 9C  Length = 229910 BitCount = 119 ID = 259
   0.543217 1  104             Rx   d 8 D2 19 00 00 00 00 00 EB  Length = 235925 BitCount = 122 ID = 260
   0.543465 1  105             Rx   d 8 10 27 00 00 00 00 00 37  Length = 239910 BitCount = 124 ID = 261
   0.543713 1  113             Rx   d 8 01 01 00 00 00 00 00 00  Length = 239910 BitCount = 124 ID = 275
   0.544003 1  18E00000x       Rx   d 8 00 03 E7 03 2A 00 24 0F  Length = 281911 BitCount = 145 ID = 417333248x
   0.544289 1  18E00100x       Rx   d 8 03 24 00 01 01 00 50 01  Length = 277910 BitCount = 143 ID = 417333504x
   0.562788 1  102             Rx   d 8 04 03 1C 00 00 00 00 23  Length = 233925 BitCount = 121 ID = 258
   0.563027 1  103             Rx   d 8 FF FF 2C 04 6E 00 00 9C  Length = 229910 BitCount = 119 ID = 259
   0.563271 1  104             Rx   d 8 D2 19 00 00 00 00 00 EB  Length = 235910 BitCount = 122 ID = 260
   0.563519 1  105             Rx   d 8 10 27 00 00 00 00 00 37  Length = 239911 BitCount = 124 ID = 261
   0.563807 1  18E00000x       Rx   d 8 00 03 E7 03 2A 00 22 0F  Length = 279910 BitCount = 144 ID = 417333248x
   0.564093 1  18E00100x       Rx   d 8 03 24 00 01 01 00 50 01  Length = 277910 BitCount = 143 ID = 417333504x
   0.582826 1  102             Rx   d 8 04 03 1C 00 00 00 00 23  Length = 233910 BitCount = 121 ID = 258
   0.583065 1  103             Rx   d 8 FF FF 2C 04 6E 00 00 9C  Length = 229925 BitCount = 119 ID = 259
   0.583309 1  104             Rx   d 8 D2 19 00 00 00 00 00 EB  Length = 235910 BitCount = 122 ID = 260
   0.583557 1  105             Rx   d 8 10 27 00 00 00 00 00 37  Length = 239926 BitCount = 124 ID = 261
   0.583847 1  18E00000x       Rx   d 8 00 03 E7 03 2A 00 24 0F  Length = 281910 BitCount = 145 ID = 417333248x
   0.584133 1  18E00100x       Rx   d 8 03 24 00 01 01 00 50 01  Length = 277926 BitCount = 143 ID = 417333504x
   0.585077 1  315             Rx   d 8 05 05 00 03 02 00 03 03  Length = 231910 BitCount = 120 ID = 789
   0.602870 1  102             Rx   d 8 04 03 1C 00 00 00 00 23  Length = 233910 BitCount = 121 ID = 258
   0.603109 1  103             Rx   d 8 FF FF 2C 04 6E 00 00 9C  Length = 229910 BitCount = 119 ID = 259
   0.603353 1  104             Rx   d 8 D2 19 00 00 00 00 00 EB  Length = 235910 BitCount = 122 ID = 260
   0.603601 1  105             Rx   d 8 10 27 00 00 00 00 00 37  Length = 239910 BitCount = 124 ID = 261
   0.603891 1  18E00000x       Rx   d 8 00 03 E7 03 2A 00 24 0F  Length = 281911 BitCount = 145 ID = 417333248x
   0.604177 1  18E00100x       Rx   d 8 03 24 00 01 01 00 50 01  Length = 277910 BitCount = 143 ID = 417333504x
   0.621124 1  221             Rx   d 8 00 45 00 07 05 00 00 4E  Length = 231911 BitCount = 120 ID = 545
   0.622237 1  204             Rx   d 8 E1 FF 37 36 37 3B 41 FF  Length = 227910 BitCount = 118 ID = 516
   0.622475 1  205             Rx   d 8 23 0F 12 0C 0F 05 00 00  Length = 229926 BitCount = 119 ID = 517
   0.622717 1  206             Rx   d 8 36 04 35 02 00 00 00 00  Length = 233911 BitCount = 121 ID = 518
   0.624073 1  311             Rx   d 8 02 00 00 00 4C 00 CB 02  Length = 231926 BitCount = 120 ID = 785
   0.627805 1  102             Rx   d 8 04 03 1C 00 00 00 00 23  Length = 233910 BitCount = 121 ID = 258
   0.628045 1  103             Rx   d 8 FF FF 2C 04 6E 00 00 9C  Length = 229926 BitCount = 119 ID = 259
   0.628289 1  104             Rx   d 8 D2 19 00 00 00 00 00 EB  Length = 235910 BitCount = 122 ID = 260
   0.628538 1  105             Rx   d 8 10 27 00 00 00 00 00 37  Length = 239926 BitCount = 124 ID = 261
   0.628828 1  18E00000x       Rx   d 8 00 03 E7 03 2A 00 24 0F  Length = 281911 BitCount = 145 ID = 417333248x
   0.629114 1  18E00100x       Rx   d 8 03 24 00 01 01 00 50 01  Length = 277910 BitCount = 143 ID = 417333504x
   0.634080 1  112             Rx   d 8 00 00 3A 34 00 00 00 00  Length = 235926 BitCount = 122 ID = 274
   0.642960 1  102             Rx   d 8 04 03 1C 00 00 00 00 23  Length = 233911 BitCount = 121 ID = 258
   0.643199 1  103             Rx   d 8 FF FF 2C 04 6E 00 00 9C  Length = 229910 BitCount = 119 ID = 259
   0.643443 1  104             Rx   d 8 D2 19 00 00 00 00 00 EB  Length = 235910 BitCount = 122 ID = 260
   0.643691 1  105             Rx   d 8 10 27 00 00 00 00 00 37  Length = 239925 BitCount = 124 ID = 261
   0.643981 1  18E00000x       Rx   d 8 00 03 E7 03 2A 00 24 0F  Length = 281910 BitCount = 145 ID = 417333248x
   0.644229 1  113             Rx   d 8 01 01 00 00 00 00 00 00  Length = 239911 BitCount = 124 ID = 275
   0.644515 1  18E00100x       Rx   d 8 03 24 00 01 01 00 50 01  Length = 277910 BitCount = 143 ID = 417333504x
   0.663004 1  102             Rx   d 8 04 03 1C 00 00 00 00 23  Length = 233910 BitCount = 121 ID = 258
   0.663243 1  103             Rx   d 8 FF FF 2C 04 6E 00 00 9C  Length = 229911 BitCount = 119 ID = 259
   0.663487 1  104             Rx   d 8 D2 19 00 00 00 00 00 EB  Length = 235910 BitCount = 122 ID = 260
   0.663735 1  105             Rx   d 8 10 27 00 00 00 00 00 37  Length = 239910 BitCount = 124 ID = 261
   0.664025 1  18E00000x       Rx   d 8 00 03 E7 03 2A 00 24 0F  Length = 281910 BitCount = 145 ID = 417333248x
   0.664311 1  18E00100x       Rx   d 8 03 24 00 01 01 00 50 01  Length = 277910 BitCount = 143 ID = 417333504x
   0.683038 1  102             Rx   d 8 04 03 1C 00 00 00 00 23  Length = 233926 BitCount = 121 ID = 258
   0.683276 1  103             Rx   d 8 FF FF 2C 04 6E 00 00 9C  Length = 229910 BitCount = 119 ID = 259
   0.683521 1  104             Rx   d 8 D2 19 00 00 00 00 00 EB  Length = 235926 BitCount = 122 ID = 260
   0.683769 1  105             Rx   d 8 10 27 00 00 00 00 00 37  Length = 239910 BitCount = 124 ID = 261
   0.684059 1  18E00000x       Rx   d 8 00 03 E7 03 23 00 22 0F  Length = 281910 BitCount = 145 ID = 417333248x
   0.684345 1  18E00100x       Rx   d 8 03 24 00 01 01 00 50 01  Length = 277910 BitCount = 143 ID = 417333504x
   0.703100 1  102             Rx   d 8 04 03 1C 00 00 00 00 23  Length = 233910 BitCount = 121 ID = 258
   0.703338 1  103             Rx   d 8 FF FF 2C 04 6E 00 00 9C  Length = 229910 BitCount = 119 ID = 259
   0.703583 1  104             Rx   d 8 D2 19 00 00 00 00 00 EB  Length = 235911 BitCount = 122 ID = 260
   0.703831 1  105             Rx   d 8 10 27 00 00 00 00 00 37  Length = 239910 BitCount = 124 ID = 261
   0.704121 1  18E00000x       Rx   d 8 00 03 E7 03 2A 00 24 0F  Length = 281910 BitCount = 145 ID = 417333248x
   0.704407 1  18E00100x       Rx   d 8 03 24 00 01 01 00 50 01  Length = 277910 BitCount = 143 ID = 417333504x
   0.721092 1  303             Rx   d 8 03 03 01 02 00 00 00 00  Length = 239911 BitCount = 124 ID = 771
   0.721332 1  221             Rx   d 8 00 45 00 07 05 00 00 4E  Length = 231910 BitCount = 120 ID = 545
   0.721570 1  302             Rx   d 8 18 05 05 00 10 34 3A 00  Length = 229910 BitCount = 119 ID = 770
   0.721807 1  304             Rx   d 8 03 44 35 4E 30 30 30 30  Length = 227911 BitCount = 118 ID = 772
   0.722495 1  201             Rx   d 8 00 00 C8 00 00 00 07 CF  Length = 237910 BitCount = 123 ID = 513
   0.722741 1  202             Rx   d 8 09 01 00 00 00 00 00 0A  Length = 237910 BitCount = 123 ID = 514
   0.722975 1  203             Rx   d 8 83 10 CF C3 03 F1 84 3C  Length = 225926 BitCount = 117 ID = 515
   0.725067 1  311             Rx   d 8 02 00 00 00 4C 00 CB 02  Length = 231910 BitCount = 120 ID = 785
   0.725551 1  102             Rx   d 8 04 03 1C 00 00 00 00 23  Length = 233910 BitCount = 121 ID = 258
   0.725789 1  103             Rx   d 8 FF FF 2C 04 6E 00 00 9C  Length = 229911 BitCount = 119 ID = 259
   0.726033 1  104             Rx   d 8 D2 19 00 00 00 00 00 EB  Length = 235926 BitCount = 122 ID = 260
   0.726282 1  105             Rx   d 8 10 27 00 00 00 00 00 37  Length = 239910 BitCount = 124 ID = 261
   0.726570 1  18E00000x       Rx   d 8 00 03 E7 03 2A 00 26 0F  Length = 279925 BitCount = 144 ID = 417333248x
   0.726856 1  18E00100x       Rx   d 8 03 24 00 01 01 00 50 01  Length = 277910 BitCount = 143 ID = 417333504x
   0.735076 1  112             Rx   d 8 00 00 3A 34 00 00 00 00  Length = 235910 BitCount = 122 ID = 274
   0.743184 1  102             Rx   d 8 04 03 1C 00 00 00 00 23  Length = 233926 BitCount = 121 ID = 258
   0.743420 1  103             Rx   d 8 FE FF 2C 04 6E 00 00 9B  Length = 227910 BitCount = 118 ID = 259
   0.743664 1  104             Rx   d 8 D2 19 00 00 00 00 00 EB  Length = 235926 BitCount = 122 ID = 260
   0.743913 1  105             Rx   d 8 10 27 00 00 00 00 00 37  Length = 239911 BitCount = 124 ID = 261
   0.744203 1  18E00000x       Rx   d 8 00 03 E7 03 2A 00 24 0F  Length = 281926 BitCount = 145 ID = 417333248x
   0.744489 1  18E00100x       Rx   d 8 03 24 00 01 01 00 50 01  Length = 277910 BitCount = 143 ID = 417333504x
   0.745083 1  113             Rx   d 8 01 01 00 00 00 00 00 00  Length = 239910 BitCount = 124 ID = 275
   0.759065 1  317             Rx   d 8 50 35 25 32 33 00 00 00  Length = 227926 BitCount = 118 ID = 791
   0.763243 1  102             Rx   d 8 04 03 1C 00 00 00 00 23  Length = 233910 BitCount = 121 ID = 258
   0.763479 1  103             Rx   d 8 FE FF 2C 04 6E 00 00 9B  Length = 227911 BitCount = 118 ID = 259
   0.763723 1  104             Rx   d 8 D2 19 00 00 00 00 00 EB  Length = 235910 BitCount = 122 ID = 260
   0.763971 1  105             Rx   d 8 10 27 00 00 00 00 00 37  Length = 239910 BitCount = 124 ID = 261
   0.764260 1  18E00000x       Rx   d 8 00 03 E7 03 2A 00 22 0F  Length = 279911 BitCount = 144 ID = 417333248x
   0.764546 1  18E00100x       Rx   d 8 03 24 00 01 01 00 50 01  Length = 277910 BitCount = 143 ID = 417333504x
   0.783273 1  102             Rx   d 8 04 03 1C 00 00 00 00 23  Length = 233910 BitCount = 121 ID = 258
   0.783509 1  103             Rx   d 8 FE FF 2C 04 6E 00 00 9B  Length = 227926 BitCount = 118 ID = 259
   0.783753 1  104             Rx   d 8 D2 19 00 00 00 00 00 EB  Length = 235911 BitCount = 122 ID = 260
   0.784001 1  105             Rx   d 8 10 27 00 00 00 00 00 37  Length = 239910 BitCount = 124 ID = 261
   0.784289 1  18E00000x       Rx   d 8 00 03 E7 03 2A 00 22 0F  Length = 279910 BitCount = 144 ID = 417333248x
   0.784576 1  18E00100x       Rx   d 8 03 24 00 01 01 00 50 01  Length = 277926 BitCount = 143 ID = 417333504x
   0.786084 1  315             Rx   d 8 05 05 00 03 02 00 03 03  Length = 231910 BitCount = 120 ID = 789
   0.803321 1  102             Rx   d 8 04 03 1C 00 00 00 00 23  Length = 233910 BitCount = 121 ID = 258
   0.803557 1  103             Rx   d 8 FE FF 2C 04 6E 00 00 9B  Length = 227910 BitCount = 118 ID = 259
   0.803801 1  104             Rx   d 8 D2 19 00 00 00 00 00 EB  Length = 235926 BitCount = 122 ID = 260
   0.804049 1  105             Rx   d 8 10 27 00 00 00 00 00 37  Length = 239910 BitCount = 124 ID = 261
   0.804337 1  18E00000x       Rx   d 8 00 03 E7 03 2A 00 22 0F  Length = 279926 BitCount = 144 ID = 417333248x
   0.804624 1  18E00100x       Rx   d 8 03 24 00 01 01 00 50 01  Length = 277911 BitCount = 143 ID = 417333504x
   0.820303 1  305             Rx   d 8 00 33 01 22 08 02 02 00  Length = 233910 BitCount = 121 ID = 773
   0.820541 1  306             Rx   d 8 00 33 01 22 08 03 01 01  Length = 229910 BitCount = 119 ID = 774
   0.820831 1  18E0000Bx       Rx   d 8 00 00 00 00 00 00 01 00  Length = 281911 BitCount = 145 ID = 417333259x
   0.821151 1  221             Rx   d 8 00 45 00 07 05 00 00 4E  Length = 231910 BitCount = 120 ID = 545
   0.822709 1  204             Rx   d 8 22 FF FF FF FF FF FF FF  Length = 241910 BitCount = 125 ID = 516
   0.822947 1  205             Rx   d 8 23 0F 12 0C 0F 05 00 00  Length = 229926 BitCount = 119 ID = 517
   0.823189 1  206             Rx   d 8 36 04 35 02 00 00 00 00  Length = 233910 BitCount = 121 ID = 518
   0.826053 1  311             Rx   d 8 02 00 00 00 4C 00 CB 02  Length = 231910 BitCount = 120 ID = 785
   0.828258 1  102             Rx   d 8 04 03 1C 00 00 00 00 23  Length = 233911 BitCount = 121 ID = 258
   0.828494 1  103             Rx   d 8 FE FF 2C 04 6E 00 00 9B  Length = 227926 BitCount = 118 ID = 259
   0.828738 1  104             Rx   d 8 D2 19 00 00 00 00 00 EB  Length = 235910 BitCount = 122 ID = 260
   0.828986 1  105             Rx   d 8 10 27 00 00 00 00 00 37  Length = 239926 BitCount = 124 ID = 261
   0.829274 1  18E00000x       Rx   d 8 00 03 E7 03 2A 00 22 0F  Length = 279910 BitCount = 144 ID = 417333248x
   0.829560 1  18E00100x       Rx   d 8 03 24 00 01 01 00 50 01  Length = 277925 BitCount = 143 ID = 417333504x
   0.836076 1  112             Rx   d 8 00 00 3A 34 00 00 00 00  Length = 235910 BitCount = 122 ID = 274
   0.843417 1  102             Rx   d 8 04 03 1C 00 00 00 00 23  Length = 233910 BitCount = 121 ID = 258
   0.843653 1  103             Rx   d 8 FE FF 2C 04 6E 00 00 9B  Length = 227925 BitCount = 118 ID = 259
   0.843897 1  104             Rx   d 8 D2 19 00 00 00 00 00 EB  Length = 235910 BitCount = 122 ID = 260
   0.844145 1  105             Rx   d 8 10 27 00 00 00 00 00 37  Length = 239926 BitCount = 124 ID = 261
   0.844435 1  18E00000x       Rx   d 8 00 03 E7 03 2A 00 24 0F  Length = 281911 BitCount = 145 ID = 417333248x
   0.844721 1  18E00100x       Rx   d 8 03 24 00 01 01 00 50 01  Length = 277926 BitCount = 143 ID = 417333504x
   0.846082 1  113             Rx   d 8 01 01 00 00 00 00 00 00  Length = 239910 BitCount = 124 ID = 275
   0.863467 1  102             Rx   d 8 04 03 1C 00 00 00 00 23  Length = 233910 BitCount = 121 ID = 258
   0.863703 1  103             Rx   d 8 FE FF 2C 04 6E 00 00 9B  Length = 227910 BitCount = 118 ID = 259
   0.863947 1  104             Rx   d 8 D2 19 00 00 00 00 00 EB  Length = 235910 BitCount = 122 ID = 260
   0.864195 1  105             Rx   d 8 10 27 00 00 00 00 00 37  Length = 239910 BitCount = 124 ID = 261
   0.864485 1  18E00000x       Rx   d 8 00 03 E7 03 2A 00 24 0F  Length = 281911 BitCount = 145 ID = 417333248x
   0.864771 1  18E00100x       Rx   d 8 03 24 00 01 01 00 50 01  Length = 277910 BitCount = 143 ID = 417333504x
   0.883501 1  102             Rx   d 8 04 03 1C 00 00 00 00 23  Length = 233911 BitCount = 121 ID = 258
   0.883737 1  103             Rx   d 8 FE FF 2C 04 6E 00 00 9B  Length = 227910 BitCount = 118 ID = 259
   0.883981 1  104             Rx   d 8 D2 19 00 00 00 00 00 EB  Length = 235910 BitCount = 122 ID = 260
   0.884229 1  105             Rx   d 8 10 27 00 00 00 00 00 37  Length = 239910 BitCount = 124 ID = 261
   0.884519 1  18E00000x       Rx   d 8 00 03 E7 03 1E 00 22 0F  Length = 281910 BitCount = 145 ID = 417333248x
   0.884805 1  18E00100x       Rx   d 8 03 24 00 01 01 00 50 01  Length = 277911 BitCount = 143 ID = 417333504x
   0.903543 1  102             Rx   d 8 04 03 1C 00 00 00 00 23  Length = 233911 BitCount = 121 ID = 258
   0.903779 1  103             Rx   d 8 FE FF 2C 04 6E 00 00 9B  Length = 227926 BitCount = 118 ID = 259
   0.904023 1  104             Rx   d 8 D2 19 00 00 00 00 00 EB  Length = 235910 BitCount = 122 ID = 260
   0.904271 1  105             Rx   d 8 10 27 00 00 00 00 00 37  Length = 239925 BitCount = 124 ID = 261
   0.904559 1  18E00000x       Rx   d 8 00 03 E7 03 2A 00 22 0F  Length = 279910 BitCount = 144 ID = 417333248x
   0.904845 1  18E00100x       Rx   d 8 03 24 00 01 01 00 50 01  Length = 277926 BitCount = 143 ID = 417333504x
   0.921531 1  303             Rx   d 8 03 03 01 02 00 00 00 00  Length = 239910 BitCount = 124 ID = 771
   0.921769 1  302             Rx   d 8 18 05 05 00 10 34 3A 00  Length = 229911 BitCount = 119 ID = 770
   0.922013 1  304             Rx   d 8 04 30 34 33 00 00 00 00  Length = 235910 BitCount = 122 ID = 772
   0.922931 1  201             Rx   d 8 00 00 C8 00 00 00 07 CF  Length = 237926 BitCount = 123 ID = 513
   0.923177 1  202             Rx   d 8 09 01 00 00 00 00 00 0A  Length = 237911 BitCount = 123 ID = 514
   0.923409 1  203             Rx   d 8 84 21 CF C8 13 F2 84 3C  Length = 223910 BitCount = 116 ID = 515
   0.924030 1  102             Rx   d 8 04 03 1C 00 00 00 00 23  Length = 233910 BitCount = 121 ID = 258
   0.924266 1  103             Rx   d 8 FE FF 2C 04 6E 00 00 9B  Length = 227910 BitCount = 118 ID = 259
   0.924510 1  104             Rx   d 8 D2 19 00 00 00 00 00 EB  Length = 235925 BitCount = 122 ID = 260
   0.924758 1  105             Rx   d 8 10 27 00 00 00 00 00 37  Length = 239910 BitCount = 124 ID = 261
   0.925048 1  18E00000x       Rx   d 8 00 03 E7 03 2A 00 24 0F  Length = 281926 BitCount = 145 ID = 417333248x
   0.925334 1  18E00100x       Rx   d 8 03 24 00 01 01 00 50 01  Length = 277910 BitCount = 143 ID = 417333504x
   0.927066 1  311             Rx   d 8 02 00 00 00 4C 00 CB 02  Length = 231910 BitCount = 120 ID = 785
   0.928432 1  221             Rx   d 8 00 45 00 07 05 00 00 4E  Length = 231910 BitCount = 120 ID = 545
   0.937068 1  112             Rx   d 8 00 00 3A 34 00 00 00 00  Length = 235910 BitCount = 122 ID = 274
   0.943634 1  102             Rx   d 8 04 03 1C 00 00 00 00 23  Length = 233926 BitCount = 121 ID = 258
   0.943870 1  103             Rx   d 8 FE FF 2C 04 6E 00 00 9B  Length = 227910 BitCount = 118 ID = 259
   0.944115 1  104             Rx   d 8 D2 19 00 00 00 00 00 EB  Length = 235911 BitCount = 122 ID = 260
   0.944363 1  105             Rx   d 8 10 27 00 00 00 00 00 37  Length = 239910 BitCount = 124 ID = 261
   0.944653 1  18E00000x       Rx   d 8 00 03 E7 03 2A 00 24 0F  Length = 281910 BitCount = 145 ID = 417333248x
   0.944939 1  18E00100x       Rx   d 8 03 24 00 01 01 00 50 01  Length = 277910 BitCount = 143 ID = 417333504x
   0.947079 1  113             Rx   d 8 01 01 00 00 00 00 00 00  Length = 239910 BitCount = 124 ID = 275
   0.959073 1  318             Rx   d 8 01 08 00 02 00 01 00 00  Length = 237926 BitCount = 123 ID = 792
   0.963683 1  102             Rx   d 8 04 03 1C 00 00 00 00 23  Length = 233910 BitCount = 121 ID = 258
   0.963919 1  103             Rx   d 8 FE FF 2C 04 6E 00 00 9B  Length = 227926 BitCount = 118 ID = 259
   0.964163 1  104             Rx   d 8 D2 19 00 00 00 00 00 EB  Length = 235911 BitCount = 122 ID = 260
   0.964412 1  105             Rx   d 8 10 27 00 00 00 00 00 37  Length = 239926 BitCount = 124 ID = 261
   0.964700 1  18E00000x       Rx   d 8 00 03 E7 03 2A 00 22 0F  Length = 279910 BitCount = 144 ID = 417333248x
   0.964986 1  18E00100x       Rx   d 8 03 24 00 01 01 00 50 01  Length = 277910 BitCount = 143 ID = 417333504x
   0.983715 1  102             Rx   d 8 04 03 1C 00 00 00 00 23  Length = 233911 BitCount = 121 ID = 258
   0.983951 1  103             Rx   d 8 FE FF 2C 04 6E 00 00 9B  Length = 227910 BitCount = 118 ID = 259
   0.984195 1  104             Rx   d 8 D2 19 00 00 00 00 00 EB  Length = 235910 BitCount = 122 ID = 260
   0.984444 1  105             Rx   d 8 10 27 00 00 00 00 00 37  Length = 239911 BitCount = 124 ID = 261
   0.984732 1  18E00000x       Rx   d 8 00 03 E7 03 2A 00 22 0F  Length = 279910 BitCount = 144 ID = 417333248x
   0.985018 1  18E00100x       Rx   d 8 03 24 00 01 01 00 50 01  Length = 277910 BitCount = 143 ID = 417333504x
   0.987098 1  315             Rx   d 8 05 05 00 03 02 00 03 03  Length = 231910 BitCount = 120 ID = 789
   1.003777 1  102             Rx   d 8 04 03 1C 00 00 00 00 23  Length = 233926 BitCount = 121 ID = 258
   1.004013 1  103             Rx   d 8 FE FF 2C 04 6E 00 00 9B  Length = 227911 BitCount = 118 ID = 259
   1.004257 1  104             Rx   d 8 D2 19 00 00 00 00 00 EB  Length = 235926 BitCount = 122 ID = 260
   1.004505 1  105             Rx   d 8 10 27 00 00 00 00 00 37  Length = 239910 BitCount = 124 ID = 261
   1.004794 1  18E00000x       Rx   d 8 00 03 E7 03 2A 00 22 0F  Length = 279926 BitCount = 144 ID = 417333248x
   1.005080 1  18E00100x       Rx   d 8 03 24 00 01 01 00 50 01  Length = 277910 BitCount = 143 ID = 417333504x
   1.016223 1  Statistic: D 300 R 0 XD 105 XR 0 E 0 O 0 B 10.15%
   1.016223 CAN 1 Status:chip status error active
   1.021101 1  221             Rx   d 8 00 45 00 07 05 00 00 4E  Length = 231910 BitCount = 120 ID = 545
   1.023161 1  204             Rx   d 8 E0 35 35 35 36 FF FF FF  Length = 229910 BitCount = 119 ID = 516
   1.023399 1  205             Rx   d 8 23 0F 12 0C 0F 05 00 00  Length = 229910 BitCount = 119 ID = 517
   1.023642 1  206             Rx   d 8 36 04 35 02 00 00 00 00  Length = 233910 BitCount = 121 ID = 518
   1.028063 1  311             Rx   d 8 02 00 00 00 4C 00 CB 02  Length = 231910 BitCount = 120 ID = 785
   1.028746 1  102             Rx   d 8 04 03 1C 00 00 00 00 23  Length = 233910 BitCount = 121 ID = 258
   1.028982 1  103             Rx   d 8 FE FF 2C 04 6E 00 00 9B  Length = 227926 BitCount = 118 ID = 259
   1.029226 1  104             Rx   d 8 D2 19 00 00 00 00 00 EB  Length = 235910 BitCount = 122 ID = 260
   1.029474 1  105             Rx   d 8 10 27 00 00 00 00 00 37  Length = 239910 BitCount = 124 ID = 261
   1.029762 1  18E00000x       Rx   d 8 00 03 E7 03 2A 00 22 0F  Length = 279910 BitCount = 144 ID = 417333248x
   1.030048 1  18E00100x       Rx   d 8 03 24 00 01 01 00 50 01  Length = 277926 BitCount = 143 ID = 417333504x
   1.038082 1  112             Rx   d 8 00 00 3A 34 00 00 00 00  Length = 235910 BitCount = 122 ID = 274
   1.043863 1  102             Rx   d 8 04 03 1C 00 00 00 00 23  Length = 233910 BitCount = 121 ID = 258
   1.044099 1  103             Rx   d 8 FE FF 2C 04 6E 00 00 9B  Length = 227910 BitCount = 118 ID = 259
   1.044343 1  104             Rx   d 8 D2 19 00 00 00 00 00 EB  Length = 235911 BitCount = 122 ID = 260
   1.044591 1  105             Rx   d 8 10 27 00 00 00 00 00 37  Length = 239910 BitCount = 124 ID = 261
   1.044879 1  18E00000x       Rx   d 8 00 03 E7 03 2A 00 22 0F  Length = 279910 BitCount = 144 ID = 417333248x
   1.045165 1  18E00100x       Rx   d 8 03 24 00 01 01 00 50 01  Length = 277911 BitCount = 143 ID = 417333504x
   1.048087 1  113             Rx   d 8 01 01 00 00 00 00 00 00  Length = 239910 BitCount = 124 ID = 275
   1.063906 1  102             Rx   d 8 04 03 1C 00 00 00 00 23  Length = 233925 BitCount = 121 ID = 258
   1.064142 1  103             Rx   d 8 FE FF 2C 04 6E 00 00 9B  Length = 227910 BitCount = 118 ID = 259
   1.064387 1  104             Rx   d 8 D2 19 00 00 00 00 00 EB  Length = 235926 BitCount = 122 ID = 260
   1.064635 1  105             Rx   d 8 10 27 00 00 00 00 00 37  Length = 239911 BitCount = 124 ID = 261
   1.064923 1  18E00000x       Rx   d 8 00 03 E7 03 2A 00 26 0F  Length = 279926 BitCount = 144 ID = 417333248x
   1.065209 1  18E00100x       Rx   d 8 03 24 00 01 01 00 50 01  Length = 277911 BitCount = 143 ID = 417333504x
   1.083948 1  102             Rx   d 8 04 03 1C 00 00 00 00 23  Length = 233910 BitCount = 121 ID = 258
   1.084184 1  103             Rx   d 8 FE FF 2C 04 6E 00 00 9B  Length = 227910 BitCount = 118 ID = 259
   1.084429 1  104             Rx   d 8 D2 19 00 00 00 00 00 EB  Length = 235910 BitCount = 122 ID = 260
   1.084677 1  105             Rx   d 8 10 27 00 00 00 00 00 37  Length = 239911 BitCount = 124 ID = 261
   1.084967 1  18E00000x       Rx   d 8 00 03 E7 03 1E 00 22 0F  Length = 281910 BitCount = 145 ID = 417333248x
   1.085253 1  18E00100x       Rx   d 8 03 24 00 01 01 00 50 01  Length = 277910 BitCount = 143 ID = 417333504x
   1.103998 1  102             Rx   d 8 04 03 1C 00 00 00 00 23  Length = 233910 BitCount = 121 ID = 258
   1.104234 1  103             Rx   d 8 FE FF 2C 04 6E 00 00 9B  Length = 227925 BitCount = 118 ID = 259
   1.104479 1  104             Rx   d 8 D2 19 00 00 00 00 00 EB  Length = 235910 BitCount = 122 ID = 260
   1.104727 1  105             Rx   d 8 10 27 00 00 00 00 00 37  Length = 239910 BitCount = 124 ID = 261
   1.105015 1  18E00000x       Rx   d 8 00 03 E7 03 2A 00 22 0F  Length = 279911 BitCount = 144 ID = 417333248x
   1.105301 1  18E00100x       Rx   d 8 03 24 00 01 01 00 50 01  Length = 277926 BitCount = 143 ID = 417333504x
   1.121096 1  221             Rx   d 8 00 45 00 07 05 00 00 4E  Length = 231910 BitCount = 120 ID = 545
   1.122003 1  303             Rx   d 8 03 03 01 02 00 00 00 00  Length = 239926 BitCount = 124 ID = 771
   1.122241 1  302             Rx   d 8 18 05 05 00 10 34 3A 00  Length = 229910 BitCount = 119 ID = 770
   1.122491 1  304             Rx   d 8 05 00 00 00 00 00 00 00  Length = 241925 BitCount = 125 ID = 772
   1.123379 1  201             Rx   d 8 00 00 C8 00 00 00 07 CF  Length = 237910 BitCount = 123 ID = 513
   1.123625 1  202             Rx   d 8 09 01 00 00 00 00 00 0A  Length = 237910 BitCount = 123 ID = 514
   1.123863 1  203             Rx   d 8 80 0D CF C3 03 F1 38 3C  Length = 229911 BitCount = 119 ID = 515
   1.126484 1  102             Rx   d 8 04 03 1C 00 00 00 00 23  Length = 233925 BitCount = 121 ID = 258
   1.126720 1  103             Rx   d 8 FE FF 2C 04 6E 00 00 9B  Length = 227910 BitCount = 118 ID = 259
   1.126964 1  104             Rx   d 8 D2 19 00 00 00 00 00 EB  Length = 235910 BitCount = 122 ID = 260
   1.127212 1  105             Rx   d 8 10 27 00 00 00 00 00 37  Length = 239911 BitCount = 124 ID = 261
   1.127500 1  18E00000x       Rx   d 8 00 03 E7 03 2A 00 22 0F  Length = 279910 BitCount = 144 ID = 417333248x
   1.127786 1  18E00100x       Rx   d 8 03 24 00 01 01 00 50 01  Length = 277910 BitCount = 143 ID = 417333504x
   1.129060 1  311             Rx   d 8 02 00 00 00 4C 00 CB 02  Length = 231926 BitCount = 120 ID = 785
   1.139066 1  112             Rx   d 8 00 00 3A 34 00 00 00 00  Length = 235926 BitCount = 122 ID = 274
   1.144091 1  102             Rx   d 8 04 03 1C 00 00 00 00 23  Length = 233911 BitCount = 121 ID = 258
   1.144329 1  103             Rx   d 8 FF FF 2C 04 6E 00 00 9C  Length = 229910 BitCount = 119 ID = 259
   1.144573 1  104             Rx   d 8 D2 19 00 00 00 00 00 EB  Length = 235910 BitCount = 122 ID = 260
   1.144821 1  105             Rx   d 8 10 27 00 00 00 00 00 37  Length = 239910 BitCount = 124 ID = 261
   1.145109 1  18E00000x       Rx   d 8 00 03 E7 03 2A 00 22 0F  Length = 279910 BitCount = 144 ID = 417333248x
   1.145395 1  18E00100x       Rx   d 8 03 24 00 01 01 00 50 01  Length = 277911 BitCount = 143 ID = 417333504x
   1.149073 1  113             Rx   d 8 01 01 00 00 00 00 00 00  Length = 239926 BitCount = 124 ID = 275
   1.164140 1  102             Rx   d 8 04 03 1C 00 00 00 00 23  Length = 233910 BitCount = 121 ID = 258
   1.164379 1  103             Rx   d 8 FF FF 2C 04 6E 00 00 9C  Length = 229926 BitCount = 119 ID = 259
   1.164623 1  104             Rx   d 8 D2 19 00 00 00 00 00 EB  Length = 235910 BitCount = 122 ID = 260
   1.164871 1  105             Rx   d 8 10 27 00 00 00 00 00 37  Length = 239925 BitCount = 124 ID = 261
   1.165159 1  18E00000x       Rx   d 8 00 03 E7 03 2A 00 22 0F  Length = 279910 BitCount = 144 ID = 417333248x
   1.165445 1  18E00100x       Rx   d 8 03 24 00 01 01 00 50 01  Length = 277926 BitCount = 143 ID = 417333504x
   1.184170 1  102             Rx   d 8 04 03 1C 00 00 00 00 23  Length = 233910 BitCount = 121 ID = 258
   1.184409 1  103             Rx   d 8 FF FF 2C 04 6E 00 00 9C  Length = 229911 BitCount = 119 ID = 259
   1.184653 1  104             Rx   d 8 D2 19 00 00 00 00 00 EB  Length = 235910 BitCount = 122 ID = 260
   1.184901 1  105             Rx   d 8 10 27 00 00 00 00 00 37  Length = 239910 BitCount = 124 ID = 261
   1.185189 1  18E00000x       Rx   d 8 00 03 E7 03 2A 00 22 0F  Length = 279925 BitCount = 144 ID = 417333248x
   1.185475 1  18E00100x       Rx   d 8 03 24 00 01 01 00 50 01  Length = 277910 BitCount = 143 ID = 417333504x
   1.188061 1  315             Rx   d 8 05 05 00 03 02 00 03 03  Length = 231910 BitCount = 120 ID = 789
   1.204230 1  102             Rx   d 8 04 03 1C 00 00 00 00 23  Length = 233910 BitCount = 121 ID = 258
   1.204468 1  103             Rx   d 8 FF FF 2C 04 6E 00 00 9C  Length = 229910 BitCount = 119 ID = 259
   1.204712 1  104             Rx   d 8 D2 19 00 00 00 00 00 EB  Length = 235911 BitCount = 122 ID = 260
   1.204961 1  105             Rx   d 8 10 27 00 00 00 00 00 37  Length = 239910 BitCount = 124 ID = 261
   1.205249 1  18E00000x       Rx   d 8 00 03 E7 03 2A 00 22 0F  Length = 279910 BitCount = 144 ID = 417333248x
   1.205535 1  18E00100x       Rx   d 8 03 24 00 01 01 00 50 01  Length = 277910 BitCount = 143 ID = 417333504x
   1.221130 1  221             Rx   d 8 00 45 00 07 05 00 00 4E  Length = 231910 BitCount = 120 ID = 545
   1.223605 1  204             Rx   d 8 E1 FF 37 36 37 3B 41 FF  Length = 227910 BitCount = 118 ID = 516
   1.223843 1  205             Rx   d 8 23 0F 12 0C 0F 05 00 00  Length = 229910 BitCount = 119 ID = 517
   1.224085 1  206             Rx   d 8 36 04 35 02 00 00 00 00  Length = 233911 BitCount = 121 ID = 518
   1.229141 1  102             Rx   d 8 04 03 1C 00 00 00 00 23  Length = 233910 BitCount = 121 ID = 258
   1.229379 1  103             Rx   d 8 FF FF 2C 04 6E 00 00 9C  Length = 229910 BitCount = 119 ID = 259
   1.229624 1  104             Rx   d 8 D2 19 00 00 00 00 00 EB  Length = 235910 BitCount = 122 ID = 260
   1.229872 1  105             Rx   d 8 10 27 00 00 00 00 00 37  Length = 239910 BitCount = 124 ID = 261
   1.230112 1  311             Rx   d 8 02 00 00 00 4C 00 CB 02  Length = 231910 BitCount = 120 ID = 785
   1.230402 1  18E00000x       Rx   d 8 00 03 E7 03 2A 00 24 0F  Length = 281910 BitCount = 145 ID = 417333248x
   1.230688 1  18E00100x       Rx   d 8 03 24 00 01 01 00 50 01  Length = 277910 BitCount = 143 ID = 417333504x
   1.240062 1  112             Rx   d 8 00 00 3A 34 00 00 00 00  Length = 235910 BitCount = 122 ID = 274
   1.244316 1  102             Rx   d 8 04 03 1C 00 00 00 00 23  Length = 233911 BitCount = 121 ID = 258
   1.244554 1  103             Rx   d 8 FF FF 2C 04 6E 00 00 9C  Length = 229910 BitCount = 119 ID = 259
   1.244798 1  104             Rx   d 8 D2 19 00 00 00 00 00 EB  Length = 235910 BitCount = 122 ID = 260
   1.245047 1  105             Rx   d 8 10 27 00 00 00 00 00 37  Length = 239911 BitCount = 124 ID = 261
   1.245337 1  18E00000x       Rx   d 8 00 03 E7 03 2A 00 24 0F  Length = 281910 BitCount = 145 ID = 417333248x
   1.245623 1  18E00100x       Rx   d 8 03 24 00 01 01 00 50 01  Length = 277910 BitCount = 143 ID = 417333504x
   1.250071 1  113             Rx   d 8 01 01 00 00 00 00 00 00  Length = 239910 BitCount = 124 ID = 275
   1.260076 1  317             Rx   d 8 50 35 25 32 33 00 00 00  Length = 227910 BitCount = 118 ID = 791
   1.264351 1  102             Rx   d 8 04 03 1C 00 00 00 00 23  Length = 233910 BitCount = 121 ID = 258
   1.264589 1  103             Rx   d 8 FF FF 2C 04 6E 00 00 9C  Length = 229911 BitCount = 119 ID = 259
   1.264833 1  104             Rx   d 8 D2 19 00 00 00 00 00 EB  Length = 235910 BitCount = 122 ID = 260
   1.265081 1  105             Rx   d 8 10 27 00 00 00 00 00 37  Length = 239910 BitCount = 124 ID = 261
   1.265369 1  18E00000x       Rx   d 8 00 03 E7 03 2A 00 22 0F  Length = 279911 BitCount = 144 ID = 417333248x
   1.265656 1  18E00100x       Rx   d 8 03 24 00 01 01 00 50 01  Length = 277910 BitCount = 143 ID = 417333504x
   1.284405 1  102             Rx   d 8 04 03 1C 00 00 00 00 23  Length = 233910 BitCount = 121 ID = 258
   1.284643 1  103             Rx   d 8 FF FF 2C 04 6E 00 00 9C  Length = 229926 BitCount = 119 ID = 259
   1.284887 1  104             Rx   d 8 D2 19 00 00 00 00 00 EB  Length = 235910 BitCount = 122 ID = 260
   1.285135 1  105             Rx   d 8 10 27 00 00 00 00 00 37  Length = 239926 BitCount = 124 ID = 261
   1.285423 1  18E00000x       Rx   d 8 00 03 E7 03 2A 00 26 0F  Length = 279911 BitCount = 144 ID = 417333248x
   1.285710 1  18E00100x       Rx   d 8 03 24 00 01 01 00 50 01  Length = 277926 BitCount = 143 ID = 417333504x
   1.304449 1  102             Rx   d 8 04 03 1C 00 00 00 00 23  Length = 233910 BitCount = 121 ID = 258
   1.304687 1  103             Rx   d 8 FF FF 2C 04 6E 00 00 9C  Length = 229910 BitCount = 119 ID = 259
   1.304931 1  104             Rx   d 8 D2 19 00 00 00 00 00 EB  Length = 235911 BitCount = 122 ID = 260
   1.305179 1  105             Rx   d 8 10 27 00 00 00 00 00 37  Length = 239910 BitCount = 124 ID = 261
   1.305469 1  18E00000x       Rx   d 8 00 03 E7 03 2A 00 24 0F  Length = 281910 BitCount = 145 ID = 417333248x
   1.305756 1  18E00100x       Rx   d 8 03 24 00 01 01 00 50 01  Length = 277911 BitCount = 143 ID = 417333504x
   1.320449 1  18E00001x       Rx   d 8 77 00 2C 04 F3 01 2C 04  Length = 271910 BitCount = 140 ID = 417333249x
   1.321111 1  221             Rx   d 8 00 45 00 07 05 00 00 4E  Length = 231911 BitCount = 120 ID = 545
   1.321445 1  305             Rx   d 8 00 33 01 22 08 02 02 00  Length = 233926 BitCount = 121 ID = 773
   1.321683 1  306             Rx   d 8 00 33 01 22 08 03 01 01  Length = 229910 BitCount = 119 ID = 774
   1.321973 1  18E0000Bx       Rx   d 8 00 00 00 00 00 00 01 00  Length = 281911 BitCount = 145 ID = 417333259x
   1.322437 1  303             Rx   d 8 03 03 01 02 00 00 00 00  Length = 239910 BitCount = 124 ID = 771
   1.322675 1  302             Rx   d 8 18 05 05 00 10 34 3A 00  Length = 229910 BitCount = 119 ID = 770
   1.322909 1  304             Rx   d 8 01 30 33 4E 4D 45 30 38  Length = 225910 BitCount = 117 ID = 772
   1.323836 1  201             Rx   d 8 00 00 C8 00 00 00 07 CF  Length = 237911 BitCount = 123 ID = 513
   1.324082 1  202             Rx   d 8 09 01 00 00 00 00 00 0A  Length = 237910 BitCount = 123 ID = 514
   1.324322 1  203             Rx   d 8 81 0C CF C7 03 F2 7C 3C  Length = 231910 BitCount = 120 ID = 515
   1.326270 1  102             Rx   d 8 04 03 1C 00 00 00 00 23  Length = 233910 BitCount = 121 ID = 258
   1.326508 1  103             Rx   d 8 FF FF 2C 04 6E 00 00 9C  Length = 229925 BitCount = 119 ID = 259
   1.326752 1  104             Rx   d 8 D2 19 00 00 00 00 00 EB  Length = 235910 BitCount = 122 ID = 260
   1.327000 1  105             Rx   d 8 10 27 00 00 00 00 00 37  Length = 239926 BitCount = 124 ID = 261
   1.327289 1  18E00000x       Rx   d 8 00 03 E7 03 2A 00 22 0F  Length = 279911 BitCount = 144 ID = 417333248x
   1.327575 1  18E00100x       Rx   d 8 03 24 00 01 01 00 50 01  Length = 277926 BitCount = 143 ID = 417333504x
   1.331061 1  311             Rx   d 8 02 00 00 00 4C 00 CB 02  Length = 231911 BitCount = 120 ID = 785
   1.341062 1  112             Rx   d 8 00 00 3A 34 00 00 00 00  Length = 235911 BitCount = 122 ID = 274
   1.344553 1  102             Rx   d 8 04 03 1C 00 00 00 00 23  Length = 233910 BitCount = 121 ID = 258
   1.344791 1  103             Rx   d 8 FF FF 2C 04 6E 00 00 9C  Length = 229910 BitCount = 119 ID = 259
   1.345035 1  104             Rx   d 8 D2 19 00 00 00 00 00 EB  Length = 235910 BitCount = 122 ID = 260
   1.345283 1  105             Rx   d 8 10 27 00 00 00 00 00 37  Length = 239911 BitCount = 124 ID = 261
   1.345567 1  18E00000x       Rx   d 8 00 03 E7 03 2A 00 29 0F  Length = 275910 BitCount = 142 ID = 417333248x
   1.345853 1  18E00100x       Rx   d 8 03 24 00 01 01 00 50 01  Length = 277910 BitCount = 143 ID = 417333504x
   1.351073 1  113             Rx   d 8 01 01 00 00 00 00 00 00  Length = 239911 BitCount = 124 ID = 275
   1.364588 1  102             Rx   d 8 04 03 1C 00 00 00 00 23  Length = 233910 BitCount = 121 ID = 258
   1.364826 1  103             Rx   d 8 FF FF 2C 04 6E 00 00 9C  Length = 229910 BitCount = 119 ID = 259
   1.365070 1  104             Rx   d 8 D2 19 00 00 00 00 00 EB  Length = 235910 BitCount = 122 ID = 260
   1.365318 1  105             Rx   d 8 10 27 00 00 00 00 00 37  Length = 239910 BitCount = 124 ID = 261
   1.365609 1  18E00000x       Rx   d 8 00 03 E7 03 2A 00 24 0F  Length = 281911 BitCount = 145 ID = 417333248x
   1.365895 1  18E00100x       Rx   d 8 03 24 00 01 01 00 50 01  Length = 277910 BitCount = 143 ID = 417333504x
   1.384624 1  102             Rx   d 8 04 03 1C 00 00 00 00 23  Length = 233926 BitCount = 121 ID = 258
   1.384860 1  103             Rx   d 8 FE FF 2C 04 6E 00 00 9B  Length = 227910 BitCount = 118 ID = 259
   1.385104 1  104             Rx   d 8 D2 19 00 00 00 00 00 EB  Length = 235925 BitCount = 122 ID = 260
   1.385352 1  105             Rx   d 8 10 27 00 00 00 00 00 37  Length = 239910 BitCount = 124 ID = 261
   1.385639 1  18E00000x       Rx   d 8 00 03 E7 03 2A 00 2B 0F  Length = 277926 BitCount = 143 ID = 417333248x
   1.385925 1  18E00100x       Rx   d 8 03 24 00 01 01 00 50 01  Length = 277910 BitCount = 143 ID = 417333504x
   1.389057 1  315             Rx   d 8 05 05 00 03 02 00 03 03  Length = 231926 BitCount = 120 ID = 789
   1.404670 1  102             Rx   d 8 04 03 1C 00 00 00 00 23  Length = 233911 BitCount = 121 ID = 258
   1.404906 1  103             Rx   d 8 FE FF 2C 04 6E 00 00 9B  Length = 227910 BitCount = 118 ID = 259
   1.405150 1  104             Rx   d 8 D2 19 00 00 00 00 00 EB  Length = 235910 BitCount = 122 ID = 260
   1.405398 1  105             Rx   d 8 10 27 00 00 00 00 00 37  Length = 239910 BitCount = 124 ID = 261
   1.405688 1  18E00000x       Rx   d 8 00 03 E7 03 2A 00 24 0F  Length = 281910 BitCount = 145 ID = 417333248x
   1.405974 1  18E00100x       Rx   d 8 03 24 00 01 01 00 50 01  Length = 277911 BitCount = 143 ID = 417333504x
   1.421266 1  221             Rx   d 8 00 45 00 07 05 00 00 4E  Length = 231910 BitCount = 120 ID = 545
   1.424044 1  204             Rx   d 8 22 FF FF FF FF FF FF FF  Length = 241926 BitCount = 125 ID = 516
   1.424282 1  205             Rx   d 8 23 0F 12 0C 0F 05 00 00  Length = 229910 BitCount = 119 ID = 517
   1.424524 1  206             Rx   d 8 36 04 35 02 00 00 00 00  Length = 233926 BitCount = 121 ID = 518
   1.425763 1  102             Rx   d 8 04 03 1C 00 00 00 00 23  Length = 233910 BitCount = 121 ID = 258
   1.425999 1  103             Rx   d 8 FE FF 2C 04 6E 00 00 9B  Length = 227926 BitCount = 118 ID = 259
   1.426243 1  104             Rx   d 8 D2 19 00 00 00 00 00 EB  Length = 235911 BitCount = 122 ID = 260
   1.426491 1  105             Rx   d 8 10 27 00 00 00 00 00 37  Length = 239910 BitCount = 124 ID = 261
   1.426779 1  18E00000x       Rx   d 8 00 03 E7 03 2A 00 22 0F  Length = 279910 BitCount = 144 ID = 417333248x
   1.427065 1  18E00100x       Rx   d 8 03 24 00 01 01 00 50 01  Length = 277926 BitCount = 143 ID = 417333504x
   1.432051 1  311             Rx   d 8 02 00 00 00 4C 00 CB 02  Length = 231911 BitCount = 120 ID = 785
   1.442061 1  112             Rx   d 8 00 00 3A 34 00 00 00 00  Length = 235911 BitCount = 122 ID = 274
   1.444759 1  102             Rx   d 8 04 03 1C 00 00 00 00 23  Length = 233926 BitCount = 121 ID = 258
   1.444996 1  103             Rx   d 8 FE FF 2C 04 6E 00 00 9B  Length = 227911 BitCount = 118 ID = 259
   1.445240 1  104             Rx   d 8 D2 19 00 00 00 00 00 EB  Length = 235926 BitCount = 122 ID = 260
   1.445488 1  105             Rx   d 8 10 27 00 00 00 00 00 37  Length = 239910 BitCount = 124 ID = 261
   1.445776 1  18E00000x       Rx   d 8 00 03 E7 03 2A 00 22 0F  Length = 279925 BitCount = 144 ID = 417333248x
   1.446062 1  18E00100x       Rx   d 8 03 24 00 01 01 00 50 01  Length = 277910 BitCount = 143 ID = 417333504x
   1.452102 1  113             Rx   d 8 01 01 00 00 00 00 00 00  Length = 239911 BitCount = 124 ID = 275
   1.460060 1  318             Rx   d 8 02 00 00 00 00 00 00 00  Length = 239910 BitCount = 124 ID = 792
   1.464802 1  102             Rx   d 8 04 03 1C 00 00 00 00 23  Length = 233910 BitCount = 121 ID = 258
   1.465038 1  103             Rx   d 8 FE FF 2C 04 6E 00 00 9B  Length = 227910 BitCount = 118 ID = 259
   1.465283 1  104             Rx   d 8 D2 19 00 00 00 00 00 EB  Length = 235911 BitCount = 122 ID = 260
   1.465531 1  105             Rx   d 8 10 27 00 00 00 00 00 37  Length = 239910 BitCount = 124 ID = 261
   1.465819 1  18E00000x       Rx   d 8 00 03 E7 03 2A 00 22 0F  Length = 279910 BitCount = 144 ID = 417333248x
   1.466105 1  18E00100x       Rx   d 8 03 24 00 01 01 00 50 01  Length = 277910 BitCount = 143 ID = 417333504x
   1.484842 1  102             Rx   d 8 04 03 1C 00 00 00 00 23  Length = 233911 BitCount = 121 ID = 258
   1.485078 1  103             Rx   d 8 FE FF 2C 04 6E 00 00 9B  Length = 227926 BitCount = 118 ID = 259
   1.485322 1  104             Rx   d 8 D2 19 00 00 00 00 00 EB  Length = 235910 BitCount = 122 ID = 260
   1.485571 1  105             Rx   d 8 10 27 00 00 00 00 00 37  Length = 239911 BitCount = 124 ID = 261
   1.485861 1  18E00000x       Rx   d 8 00 03 E7 03 23 00 22 0F  Length = 281910 BitCount = 145 ID = 417333248x
   1.486147 1  18E00100x       Rx   d 8 03 24 00 01 01 00 50 01  Length = 277925 BitCount = 143 ID = 417333504x
   1.494041 1  31E             Rx   d 8 D7 2B 14 19 3F 86 7F B2  Length = 219926 BitCount = 114 ID = 798
   1.504892 1  102             Rx   d 8 04 03 1C 00 00 00 00 23  Length = 233911 BitCount = 121 ID = 258
   1.505128 1  103             Rx   d 8 FE FF 2C 04 6E 00 00 9B  Length = 227910 BitCount = 118 ID = 259
   1.505372 1  104             Rx   d 8 D2 19 00 00 00 00 00 EB  Length = 235926 BitCount = 122 ID = 260
   1.505620 1  105             Rx   d 8 10 27 00 00 00 00 00 37  Length = 239911 BitCount = 124 ID = 261
   1.505908 1  18E00000x       Rx   d 8 00 03 E7 03 2A 00 22 0F  Length = 279926 BitCount = 144 ID = 417333248x
   1.506194 1  18E00100x       Rx   d 8 03 24 00 01 01 00 50 01  Length = 277910 BitCount = 143 ID = 417333504x
   1.521112 1  221             Rx   d 8 00 45 00 07 05 00 00 4E  Length = 231926 BitCount = 120 ID = 545
   1.522884 1  303             Rx   d 8 03 03 01 02 00 00 00 00  Length = 239910 BitCount = 124 ID = 771
   1.523122 1  302             Rx   d 8 18 05 05 00 10 34 3B 00  Length = 229911 BitCount = 119 ID = 770
   1.523354 1  304             Rx   d 8 02 54 51 4C 30 30 31 47  Length = 223910 BitCount = 116 ID = 772
   1.524279 1  201             Rx   d 8 00 00 C8 00 00 00 07 CF  Length = 237910 BitCount = 123 ID = 513
   1.524525 1  202             Rx   d 8 09 01 00 00 00 00 00 0A  Length = 237925 BitCount = 123 ID = 514
   1.524761 1  203             Rx   d 8 82 21 0F C8 D3 F0 50 3C  Length = 227910 BitCount = 118 ID = 515
   1.529857 1  102             Rx   d 8 04 03 1C 00 00 00 00 23  Length = 233911 BitCount = 121 ID = 258
   1.530093 1  103             Rx   d 8 FE FF 2C 04 6E 00 00 9B  Length = 227926 BitCount = 118 ID = 259
   1.530338 1  104             Rx   d 8 D2 19 00 00 00 00 00 EB  Length = 235910 BitCount = 122 ID = 260
   1.530586 1  105             Rx   d 8 10 27 00 00 00 00 00 37  Length = 239925 BitCount = 124 ID = 261
   1.530874 1  18E00000x       Rx   d 8 00 03 E7 03 2A 00 22 0F  Length = 279910 BitCount = 144 ID = 417333248x
   1.531160 1  18E00100x       Rx   d 8 03 24 00 01 01 00 50 01  Length = 277926 BitCount = 143 ID = 417333504x
   1.533048 1  311             Rx   d 8 02 00 00 00 4C 00 CB 02  Length = 231910 BitCount = 120 ID = 785
   1.543084 1  112             Rx   d 8 00 00 3A 34 00 00 00 00  Length = 235910 BitCount = 122 ID = 274
   1.544978 1  102             Rx   d 8 04 03 1C 00 00 00 00 23  Length = 233910 BitCount = 121 ID = 258
   1.545214 1  103             Rx   d 8 FE FF 2C 04 6E 00 00 9B  Length = 227926 BitCount = 118 ID = 259
   1.545458 1  104             Rx   d 8 D2 19 00 00 00 00 00 EB  Length = 235911 BitCount = 122 ID = 260
   1.545706 1  105             Rx   d 8 10 27 00 00 00 00 00 37  Length = 239926 BitCount = 124 ID = 261
   1.545994 1  18E00000x       Rx   d 8 00 03 E7 03 2A 00 22 0F  Length = 279910 BitCount = 144 ID = 417333248x
   1.546281 1  18E00100x       Rx   d 8 03 24 00 01 01 00 50 01  Length = 277926 BitCount = 143 ID = 417333504x
   1.553078 1  113             Rx   d 8 01 01 00 00 00 00 00 00  Length = 239910 BitCount = 124 ID = 275
   1.565019 1  102             Rx   d 8 04 03 1C 00 00 00 00 23  Length = 233910 BitCount = 121 ID = 258
   1.565255 1  103             Rx   d 8 FE FF 2C 04 6E 00 00 9B  Length = 227910 BitCount = 118 ID = 259
   1.565500 1  104             Rx   d 8 D2 19 00 00 00 00 00 EB  Length = 235911 BitCount = 122 ID = 260
   1.565748 1  105             Rx   d 8 10 27 00 00 00 00 00 37  Length = 239910 BitCount = 124 ID = 261
   1.566034 1  18E00000x       Rx   d 8 00 03 E7 03 2A 00 2D 0F  Length = 277910 BitCount = 143 ID = 417333248x
   1.566320 1  18E00100x       Rx   d 8 03 24 00 01 01 00 50 01  Length = 277911 BitCount = 143 ID = 417333504x
   1.585077 1  102             Rx   d 8 04 03 1C 00 00 00 00 23  Length = 233910 BitCount = 121 ID = 258
   1.585313 1  103             Rx   d 8 FE FF 2C 04 6E 00 00 9B  Length = 227910 BitCount = 118 ID = 259
   1.585558 1  104             Rx   d 8 D2 19 00 00 00 00 00 EB  Length = 235910 BitCount = 122 ID = 260
   1.585806 1  105             Rx   d 8 10 27 00 00 00 00 00 37  Length = 239911 BitCount = 124 ID = 261
   1.586094 1  18E00000x       Rx   d 8 00 03 E7 03 2A 00 22 0F  Length = 279910 BitCount = 144 ID = 417333248x
   1.586380 1  18E00100x       Rx   d 8 03 24 00 01 01 00 50 01  Length = 277910 BitCount = 143 ID = 417333504x
   1.590036 1  315             Rx   d 8 05 05 03 03 02 00 03 03  Length = 231910 BitCount = 120 ID = 789
   1.605109 1  102             Rx   d 8 04 03 1C 00 00 00 00 23  Length = 233910 BitCount = 121 ID = 258
   1.605345 1  103             Rx   d 8 FE FF 2C 04 6E 00 00 9B  Length = 227925 BitCount = 118 ID = 259
   1.605589 1  104             Rx   d 8 D2 19 00 00 00 00 00 EB  Length = 235910 BitCount = 122 ID = 260
   1.605837 1  105             Rx   d 8 10 27 00 00 00 00 00 37  Length = 239926 BitCount = 124 ID = 261
   1.606127 1  18E00000x       Rx   d 8 00 03 E7 03 2A 00 24 0F  Length = 281911 BitCount = 145 ID = 417333248x
   1.606414 1  18E00100x       Rx   d 8 03 24 00 01 01 00 50 01  Length = 277926 BitCount = 143 ID = 417333504x
   1.621085 1  221             Rx   d 8 00 45 00 07 05 00 00 4E  Length = 231910 BitCount = 120 ID = 545
   1.624483 1  204             Rx   d 8 E0 35 35 35 36 FF FF FF  Length = 229926 BitCount = 119 ID = 516
   1.624721 1  205             Rx   d 8 23 0F 12 0C 0F 05 00 00  Length = 229910 BitCount = 119 ID = 517
   1.624964 1  206             Rx   d 8 36 04 35 02 00 00 00 00  Length = 233911 BitCount = 121 ID = 518
   1.626152 1  102             Rx   d 8 04 03 1C 00 00 00 00 23  Length = 233911 BitCount = 121 ID = 258
   1.626388 1  103             Rx   d 8 FE FF 2C 04 6E 00 00 9B  Length = 227910 BitCount = 118 ID = 259
   1.626632 1  104             Rx   d 8 D2 19 00 00 00 00 00 EB  Length = 235910 BitCount = 122 ID = 260
   1.626880 1  105             Rx   d 8 10 27 00 00 00 00 00 37  Length = 239911 BitCount = 124 ID = 261
   1.627168 1  18E00000x       Rx   d 8 00 03 E7 03 2A 00 22 0F  Length = 279910 BitCount = 144 ID = 417333248x
   1.627455 1  18E00100x       Rx   d 8 03 24 00 01 01 00 50 01  Length = 277910 BitCount = 143 ID = 417333504x
   1.634066 1  311             Rx   d 8 02 00 00 00 4C 00 CB 02  Length = 231926 BitCount = 120 ID = 785
   1.644054 1  112             Rx   d 8 00 00 3A 34 00 00 00 00  Length = 235926 BitCount = 122 ID = 274
   1.645202 1  102             Rx   d 8 04 03 1C 00 00 00 00 23  Length = 233926 BitCount = 121 ID = 258
   1.645438 1  103             Rx   d 8 FE FF 2C 04 6E 00 00 9B  Length = 227910 BitCount = 118 ID = 259
   1.645683 1  104             Rx   d 8 D2 19 00 00 00 00 00 EB  Length = 235910 BitCount = 122 ID = 260
   1.645931 1  105             Rx   d 8 10 27 00 00 00 00 00 37  Length = 239910 BitCount = 124 ID = 261
   1.646219 1  18E00000x       Rx   d 8 00 03 E7 03 2A 00 22 0F  Length = 279910 BitCount = 144 ID = 417333248x
   1.646505 1  18E00100x       Rx   d 8 03 24 00 01 01 00 50 01  Length = 277911 BitCount = 143 ID = 417333504x
   1.654059 1  113             Rx   d 8 01 01 00 00 00 00 00 00  Length = 239926 BitCount = 124 ID = 275
   1.665234 1  102             Rx   d 8 04 03 1C 00 00 00 00 23  Length = 233911 BitCount = 121 ID = 258
   1.665470 1  103             Rx   d 8 FE FF 2C 04 6E 00 00 9B  Length = 227926 BitCount = 118 ID = 259
   1.665714 1  104             Rx   d 8 D2 19 00 00 00 00 00 EB  Length = 235910 BitCount = 122 ID = 260
   1.665962 1  105             Rx   d 8 10 27 00 00 00 00 00 37  Length = 239925 BitCount = 124 ID = 261
   1.666252 1  18E00000x       Rx   d 8 00 03 E7 03 2A 00 24 0F  Length = 281910 BitCount = 145 ID = 417333248x
   1.666538 1  18E00100x       Rx   d 8 03 24 00 01 01 00 50 01  Length = 277926 BitCount = 143 ID = 417333504x
   1.685282 1  102             Rx   d 8 04 03 1C 00 00 00 00 23  Length = 233910 BitCount = 121 ID = 258
   1.685518 1  103             Rx   d 8 FE FF 2C 04 6E 00 00 9B  Length = 227911 BitCount = 118 ID = 259
   1.685762 1  104             Rx   d 8 D2 19 00 00 00 00 00 EB  Length = 235910 BitCount = 122 ID = 260
   1.686010 1  105             Rx   d 8 10 27 00 00 00 00 00 37  Length = 239910 BitCount = 124 ID = 261
   1.686296 1  18E00000x       Rx   d 8 00 03 E7 03 1B 00 24 0F  Length = 277910 BitCount = 143 ID = 417333248x
   1.686582 1  18E00100x       Rx   d 8 03 24 00 01 01 00 50 01  Length = 277910 BitCount = 143 ID = 417333504x
   1.705346 1  102             Rx   d 8 04 03 1C 00 00 00 00 23  Length = 233926 BitCount = 121 ID = 258
   1.705582 1  103             Rx   d 8 FE FF 2C 04 6E 00 00 9B  Length = 227910 BitCount = 118 ID = 259
   1.705826 1  104             Rx   d 8 D2 19 00 00 00 00 00 EB  Length = 235926 BitCount = 122 ID = 260
   1.706074 1  105             Rx   d 8 10 27 00 00 00 00 00 37  Length = 239910 BitCount = 124 ID = 261
   1.706362 1  18E00000x       Rx   d 8 00 03 E7 03 2A 00 22 0F  Length = 279925 BitCount = 144 ID = 417333248x
   1.706648 1  18E00100x       Rx   d 8 03 24 00 01 01 00 50 01  Length = 277910 BitCount = 143 ID = 417333504x
   1.721122 1  221             Rx   d 8 00 45 00 07 05 00 00 4E  Length = 231910 BitCount = 120 ID = 545
   1.723324 1  303             Rx   d 8 03 03 01 02 00 00 00 00  Length = 239910 BitCount = 124 ID = 771
   1.723562 1  302             Rx   d 8 18 05 05 00 10 34 3B 00  Length = 229926 BitCount = 119 ID = 770
   1.723798 1  304             Rx   d 8 03 44 35 4E 30 30 30 30  Length = 227911 BitCount = 118 ID = 772
   1.724725 1  201             Rx   d 8 00 00 C8 00 00 00 07 CF  Length = 237910 BitCount = 123 ID = 513
   1.724971 1  202             Rx   d 8 09 01 00 00 00 00 00 0A  Length = 237910 BitCount = 123 ID = 514
   1.725205 1  203             Rx   d 8 83 10 CF C3 03 F1 84 3C  Length = 225911 BitCount = 117 ID = 515
   1.730297 1  102             Rx   d 8 04 03 1C 00 00 00 00 23  Length = 233910 BitCount = 121 ID = 258
   1.730533 1  103             Rx   d 8 FE FF 2C 04 6E 00 00 9B  Length = 227910 BitCount = 118 ID = 259
   1.730778 1  104             Rx   d 8 D2 19 00 00 00 00 00 EB  Length = 235910 BitCount = 122 ID = 260
   1.731026 1  105             Rx   d 8 10 27 00 00 00 00 00 37  Length = 239910 BitCount = 124 ID = 261
   1.731312 1  18E00000x       Rx   d 8 00 03 E7 03 2A 00 2D 0F  Length = 277911 BitCount = 143 ID = 417333248x
   1.731598 1  18E00100x       Rx   d 8 03 24 00 01 01 00 50 01  Length = 277910 BitCount = 143 ID = 417333504x
   1.735044 1  311             Rx   d 8 02 00 00 00 4C 00 CB 02  Length = 231910 BitCount = 120 ID = 785
   1.745048 1  112             Rx   d 8 00 00 3A 34 00 00 00 00  Length = 235910 BitCount = 122 ID = 274
   1.745432 1  102             Rx   d 8 04 03 1C 00 00 00 00 23  Length = 233911 BitCount = 121 ID = 258
   1.745668 1  103             Rx   d 8 FE FF 2C 04 6E 00 00 9B  Length = 227910 BitCount = 118 ID = 259
   1.745912 1  104             Rx   d 8 D2 19 00 00 00 00 00 EB  Length = 235910 BitCount = 122 ID = 260
   1.746160 1  105             Rx   d 8 10 27 00 00 00 00 00 37  Length = 239911 BitCount = 124 ID = 261
   1.746448 1  18E00000x       Rx   d 8 00 03 E7 03 2A 00 22 0F  Length = 279910 BitCount = 144 ID = 417333248x
   1.746735 1  18E00100x       Rx   d 8 03 24 00 01 01 00 50 01  Length = 277910 BitCount = 143 ID = 417333504x
   1.755056 1  113             Rx   d 8 01 01 00 00 00 00 00 00  Length = 239910 BitCount = 124 ID = 275
   1.761040 1  317             Rx   d 8 50 35 25 32 33 00 00 00  Length = 227911 BitCount = 118 ID = 791
   1.765473 1  102             Rx   d 8 04 03 1C 00 00 00 00 23  Length = 233926 BitCount = 121 ID = 258
   1.765709 1  103             Rx   d 8 FE FF 2C 04 6E 00 00 9B  Length = 227910 BitCount = 118 ID = 259
   1.765953 1  104             Rx   d 8 D2 19 00 00 00 00 00 EB  Length = 235926 BitCount = 122 ID = 260
   1.766201 1  105             Rx   d 8 10 27 00 00 00 00 00 37  Length = 239910 BitCount = 124 ID = 261
   1.766489 1  18E00000x       Rx   d 8 00 03 E7 03 2A 00 22 0F  Length = 279926 BitCount = 144 ID = 417333248x
   1.766775 1  18E00100x       Rx   d 8 03 24 00 01 01 00 50 01  Length = 277910 BitCount = 143 ID = 417333504x
   1.785531 1  102             Rx   d 8 04 03 1C 00 00 00 00 23  Length = 233910 BitCount = 121 ID = 258
   1.785767 1  103             Rx   d 8 FE FF 2C 04 6E 00 00 9B  Length = 227911 BitCount = 118 ID = 259
   1.786011 1  104             Rx   d 8 D2 19 00 00 00 00 00 EB  Length = 235910 BitCount = 122 ID = 260
   1.786259 1  105             Rx   d 8 10 27 00 00 00 00 00 37  Length = 239910 BitCount = 124 ID = 261
   1.786549 1  18E00000x       Rx   d 8 00 03 E7 03 2A 00 24 0F  Length = 281911 BitCount = 145 ID = 417333248x
   1.786835 1  18E00100x       Rx   d 8 03 24 00 01 01 00 50 01  Length = 277910 BitCount = 143 ID = 417333504x
   1.791039 1  315             Rx   d 8 05 05 03 03 02 00 03 03  Length = 231911 BitCount = 120 ID = 789
   1.805560 1  102             Rx   d 8 04 03 1C 00 00 00 00 23  Length = 233910 BitCount = 121 ID = 258
   1.805796 1  103             Rx   d 8 FE FF 2C 04 6E 00 00 9B  Length = 227910 BitCount = 118 ID = 259
   1.806041 1  104             Rx   d 8 D2 19 00 00 00 00 00 EB  Length = 235911 BitCount = 122 ID = 260
   1.806289 1  105             Rx   d 8 10 27 00 00 00 00 00 37  Length = 239910 BitCount = 124 ID = 261
   1.806579 1  18E00000x       Rx   d 8 00 03 E7 03 2A 00 24 0F  Length = 281910 BitCount = 145 ID = 417333248x
   1.806865 1  18E00100x       Rx   d 8 03 24 00 01 01 00 50 01  Length = 277926 BitCount = 143 ID = 417333504x
   1.822548 1  305             Rx   d 8 00 33 01 22 08 02 02 00  Length = 233926 BitCount = 121 ID = 773
   1.822786 1  306             Rx   d 8 00 33 01 22 08 03 01 01  Length = 229911 BitCount = 119 ID = 774
   1.823076 1  18E0000Bx       Rx   d 8 00 00 00 00 00 00 01 00  Length = 281926 BitCount = 145 ID = 417333259x
   1.824935 1  204             Rx   d 8 E1 FF 37 36 37 3B 41 FF  Length = 227911 BitCount = 118 ID = 516
   1.825173 1  205             Rx   d 8 23 0F 12 0C 0F 05 00 00  Length = 229910 BitCount = 119 ID = 517
   1.825415 1  206             Rx   d 8 36 04 35 02 00 00 00 00  Length = 233910 BitCount = 121 ID = 518
   1.826593 1  102             Rx   d 8 04 03 1C 00 00 00 00 23  Length = 233926 BitCount = 121 ID = 258
   1.826829 1  103             Rx   d 8 FE FF 2C 04 6E 00 00 9B  Length = 227911 BitCount = 118 ID = 259
   1.827073 1  104             Rx   d 8 D2 19 00 00 00 00 00 EB  Length = 235926 BitCount = 122 ID = 260
   1.827322 1  105             Rx   d 8 10 27 00 00 00 00 00 37  Length = 239910 BitCount = 124 ID = 261
   1.827610 1  18E00000x       Rx   d 8 00 03 E7 03 2A 00 26 0F  Length = 279925 BitCount = 144 ID = 417333248x
   1.827896 1  18E00100x       Rx   d 8 03 24 00 01 01 00 50 01  Length = 277910 BitCount = 143 ID = 417333504x
   1.828278 1  221             Rx   d 8 00 45 00 07 05 00 00 4E  Length = 231910 BitCount = 120 ID = 545
   1.836050 1  311             Rx   d 8 02 00 00 00 4C 00 CB 02  Length = 231910 BitCount = 120 ID = 785
   1.845636 1  102             Rx   d 8 04 03 1C 00 00 00 00 23  Length = 233910 BitCount = 121 ID = 258
   1.845872 1  103             Rx   d 8 FE FF 2C 04 6E 00 00 9B  Length = 227910 BitCount = 118 ID = 259
   1.846117 1  104             Rx   d 8 D2 19 00 00 00 00 00 EB  Length = 235910 BitCount = 122 ID = 260
   1.846365 1  105             Rx   d 8 10 27 00 00 00 00 00 37  Length = 240152 BitCount = 124 ID = 261
   1.846609 1  112             Rx   d 8 00 00 3A 34 00 00 00 00  Length = 235925 BitCount = 122 ID = 274
   1.846897 1  18E00000x       Rx   d 8 00 03 E7 03 2A 00 22 0F  Length = 279910 BitCount = 144 ID = 417333248x
   1.847183 1  18E00100x       Rx   d 8 03 24 00 01 01 00 50 01  Length = 277911 BitCount = 143 ID = 417333504x
   1.856059 1  113             Rx   d 8 01 01 00 00 00 00 00 00  Length = 239910 BitCount = 124 ID = 275
   1.865695 1  102             Rx   d 8 04 03 1C 00 00 00 00 23  Length = 233910 BitCount = 121 ID = 258
   1.865932 1  103             Rx   d 8 FE FF 2C 04 6E 00 00 9B  Length = 227925 BitCount = 118 ID = 259
   1.866176 1  104             Rx   d 8 D2 19 00 00 00 00 00 EB  Length = 235910 BitCount = 122 ID = 260
   1.866424 1  105             Rx   d 8 10 27 00 00 00 00 00 37  Length = 239926 BitCount = 124 ID = 261
   1.866712 1  18E00000x       Rx   d 8 00 03 E7 03 2A 00 22 0F  Length = 279911 BitCount = 144 ID = 417333248x
   1.866998 1  18E00100x       Rx   d 8 03 24 00 01 01 00 50 01  Length = 277926 BitCount = 143 ID = 417333504x
   1.885753 1  102             Rx   d 8 04 03 1C 00 00 00 00 23  Length = 233910 BitCount = 121 ID = 258
   1.885990 1  103             Rx   d 8 FE FF 2C 04 6E 00 00 9B  Length = 227910 BitCount = 118 ID = 259
   1.886234 1  104             Rx   d 8 D2 19 00 00 00 00 00 EB  Length = 235910 BitCount = 122 ID = 260
   1.886482 1  105             Rx   d 8 10 27 00 00 00 00 00 37  Length = 239910 BitCount = 124 ID = 261
   1.886772 1  18E00000x       Rx   d 8 00 03 E7 03 2A 00 24 0F  Length = 281926 BitCount = 145 ID = 417333248x
   1.887058 1  18E00100x       Rx   d 8 03 24 00 01 01 00 50 01  Length = 277910 BitCount = 143 ID = 417333504x
   1.905787 1  102             Rx   d 8 04 03 1C 00 00 00 00 23  Length = 233911 BitCount = 121 ID = 258
   1.906024 1  103             Rx   d 8 FE FF 2C 04 6E 00 00 9B  Length = 227910 BitCount = 118 ID = 259
   1.906268 1  104             Rx   d 8 D2 19 00 00 00 00 00 EB  Length = 235910 BitCount = 122 ID = 260
   1.906516 1  105             Rx   d 8 10 27 00 00 00 00 00 37  Length = 239910 BitCount = 124 ID = 261
   1.906806 1  18E00000x       Rx   d 8 00 03 E7 03 2A 00 24 0F  Length = 281910 BitCount = 145 ID = 417333248x
   1.907092 1  18E00100x       Rx   d 8 03 24 00 01 01 00 50 01  Length = 277911 BitCount = 143 ID = 417333504x
   1.921192 1  221             Rx   d 8 00 45 00 07 05 00 00 4E  Length = 231910 BitCount = 120 ID = 545
   1.923784 1  303             Rx   d 8 03 03 01 02 00 00 00 00  Length = 239910 BitCount = 124 ID = 771
   1.924022 1  302             Rx   d 8 18 05 05 00 10 34 3B 00  Length = 229926 BitCount = 119 ID = 770
   1.924266 1  304             Rx   d 8 04 30 34 33 00 00 00 00  Length = 235910 BitCount = 122 ID = 772
   1.925162 1  201             Rx   d 8 00 00 C8 00 00 00 07 CF  Length = 237911 BitCount = 123 ID = 513
   1.925409 1  202             Rx   d 8 09 01 00 00 00 00 00 0A  Length = 237910 BitCount = 123 ID = 514
   1.925643 1  203             Rx   d 8 84 21 CF C8 13 F2 80 3C  Length = 225910 BitCount = 117 ID = 515
   1.930713 1  102             Rx   d 8 04 03 1C 00 00 00 00 23  Length = 233910 BitCount = 121 ID = 258
   1.930951 1  103             Rx   d 8 FE FF 2C 04 6E 00 00 9B  Length = 227910 BitCount = 118 ID = 259
   1.931195 1  104             Rx   d 8 D2 19 00 00 00 00 00 EB  Length = 235911 BitCount = 122 ID = 260
   1.931444 1  105             Rx   d 8 10 27 00 00 00 00 00 37  Length = 239910 BitCount = 124 ID = 261
   1.931732 1  18E00000x       Rx   d 8 00 03 E7 03 2A 00 22 0F  Length = 279910 BitCount = 144 ID = 417333248x
   1.932018 1  18E00100x       Rx   d 8 03 24 00 01 01 00 50 01  Length = 277911 BitCount = 143 ID = 417333504x
   1.937040 1  311             Rx   d 8 02 00 00 00 4C 00 CB 02  Length = 231910 BitCount = 120 ID = 785
   1.945886 1  102             Rx   d 8 04 03 1C 00 00 00 00 23  Length = 233910 BitCount = 121 ID = 258
   1.946123 1  103             Rx   d 8 FE FF 2C 04 6E 00 00 9B  Length = 227911 BitCount = 118 ID = 259
   1.946367 1  104             Rx   d 8 D2 19 00 00 00 00 00 EB  Length = 235910 BitCount = 122 ID = 260
   1.946615 1  105             Rx   d 8 10 27 00 00 00 00 00 37  Length = 239910 BitCount = 124 ID = 261
   1.946905 1  18E00000x       Rx   d 8 00 03 E7 03 2A 00 24 0F  Length = 281910 BitCount = 145 ID = 417333248x
   1.947149 1  112             Rx   d 8 00 00 3A 34 00 00 00 00  Length = 235910 BitCount = 122 ID = 274
   1.947435 1  18E00100x       Rx   d 8 03 24 00 01 01 00 50 01  Length = 277911 BitCount = 143 ID = 417333504x
   1.957053 1  113             Rx   d 8 01 01 00 00 00 00 00 00  Length = 239910 BitCount = 124 ID = 275
   1.961051 1  318             Rx   d 8 03 00 00 00 00 00 00 00  Length = 239911 BitCount = 124 ID = 792
   1.965935 1  102             Rx   d 8 04 03 1C 00 00 00 00 23  Length = 233926 BitCount = 121 ID = 258
   1.966171 1  103             Rx   d 8 FE FF 2C 04 6E 00 00 9B  Length = 227910 BitCount = 118 ID = 259
   1.966416 1  104             Rx   d 8 D2 19 00 00 00 00 00 EB  Length = 235911 BitCount = 122 ID = 260
   1.966664 1  105             Rx   d 8 10 27 00 00 00 00 00 37  Length = 239910 BitCount = 124 ID = 261
   1.966954 1  18E00000x       Rx   d 8 00 03 E7 03 2A 00 24 0F  Length = 281910 BitCount = 145 ID = 417333248x
   1.967240 1  18E00100x       Rx   d 8 03 24 00 01 01 00 50 01  Length = 277910 BitCount = 143 ID = 417333504x
   1.985967 1  102             Rx   d 8 04 03 1C 00 00 00 00 23  Length = 233910 BitCount = 121 ID = 258
   1.986205 1  103             Rx   d 8 FF FF 2C 04 6E 00 00 9C  Length = 229926 BitCount = 119 ID = 259
   1.986450 1  104             Rx   d 8 D2 19 00 00 00 00 00 EB  Length = 235911 BitCount = 122 ID = 260
   1.986698 1  105             Rx   d 8 10 27 00 00 00 00 00 37  Length = 239926 BitCount = 124 ID = 261
   1.986986 1  18E00000x       Rx   d 8 00 03 E7 03 2A 00 22 0F  Length = 279910 BitCount = 144 ID = 417333248x
   1.987272 1  18E00100x       Rx   d 8 03 24 00 01 01 00 50 01  Length = 277925 BitCount = 143 ID = 417333504x
   1.992038 1  315             Rx   d 8 05 05 03 03 02 00 03 03  Length = 231911 BitCount = 120 ID = 789
   2.006013 1  102             Rx   d 8 04 03 1C 00 00 00 00 23  Length = 233911 BitCount = 121 ID = 258
   2.006251 1  103             Rx   d 8 FF FF 2C 04 6E 00 00 9C  Length = 229910 BitCount = 119 ID = 259
   2.006495 1  104             Rx   d 8 D2 19 00 00 00 00 00 EB  Length = 235910 BitCount = 122 ID = 260
   2.006743 1  105             Rx   d 8 10 27 00 00 00 00 00 37  Length = 239911 BitCount = 124 ID = 261
   2.007031 1  18E00000x       Rx   d 8 00 03 E7 03 2A 00 22 0F  Length = 279910 BitCount = 144 ID = 417333248x
   2.007318 1  18E00100x       Rx   d 8 03 24 00 01 01 00 50 01  Length = 277910 BitCount = 143 ID = 417333504x
   2.016223 1  Statistic: D 299 R 0 XD 103 XR 0 E 0 O 0 B 10.20%
   2.016223 CAN 1 Status:chip status error active
   2.021061 1  221             Rx   d 8 00 45 00 07 05 00 00 4E  Length = 231926 BitCount = 120 ID = 545
   2.025398 1  204             Rx   d 8 22 FF FF FF FF FF FF FF  Length = 241910 BitCount = 125 ID = 516
   2.025636 1  205             Rx   d 8 23 0F 12 0C 0F 05 00 00  Length = 229910 BitCount = 119 ID = 517
   2.025878 1  206             Rx   d 8 36 04 35 02 00 00 00 00  Length = 233910 BitCount = 121 ID = 518
   2.027092 1  102             Rx   d 8 04 03 1C 00 00 00 00 23  Length = 233926 BitCount = 121 ID = 258
   2.027330 1  103             Rx   d 8 FF FF 2C 04 6E 00 00 9C  Length = 229910 BitCount = 119 ID = 259
   2.027574 1  104             Rx   d 8 D2 19 00 00 00 00 00 EB  Length = 235925 BitCount = 122 ID = 260
   2.027822 1  105             Rx   d 8 10 27 00 00 00 00 00 37  Length = 239910 BitCount = 124 ID = 261
   2.028111 1  18E00000x       Rx   d 8 00 03 E7 03 2A 00 22 0F  Length = 279926 BitCount = 144 ID = 417333248x
   2.028397 1  18E00100x       Rx   d 8 03 24 00 01 01 00 50 01  Length = 277910 BitCount = 143 ID = 417333504x
   2.038034 1  311             Rx   d 8 02 00 00 00 4C 00 CB 02  Length = 231910 BitCount = 120 ID = 785
   2.046087 1  102             Rx   d 8 04 03 1C 00 00 00 00 23  Length = 233910 BitCount = 121 ID = 258
   2.046325 1  103             Rx   d 8 FF FF 2C 04 6E 00 00 9C  Length = 229911 BitCount = 119 ID = 259
   2.046569 1  104             Rx   d 8 D2 19 00 00 00 00 00 EB  Length = 235910 BitCount = 122 ID = 260
   2.046817 1  105             Rx   d 8 10 27 00 00 00 00 00 37  Length = 239926 BitCount = 124 ID = 261
   2.047106 1  18E00000x       Rx   d 8 00 03 E7 03 2A 00 22 0F  Length = 279911 BitCount = 144 ID = 417333248x
   2.047392 1  18E00100x       Rx   d 8 03 24 00 01 01 00 50 01  Length = 277910 BitCount = 143 ID = 417333504x
   2.048042 1  112             Rx   d 8 00 00 3A 34 00 00 00 00  Length = 235910 BitCount = 122 ID = 274
   2.058062 1  113             Rx   d 8 01 01 00 00 00 00 00 00  Length = 239910 BitCount = 124 ID = 275
   2.066128 1  102             Rx   d 8 04 03 1C 00 00 00 00 23  Length = 233910 BitCount = 121 ID = 258
   2.066366 1  103             Rx   d 8 FF FF 2C 04 6E 00 00 9C  Length = 229910 BitCount = 119 ID = 259
   2.066610 1  104             Rx   d 8 D2 19 00 00 00 00 00 EB  Length = 235911 BitCount = 122 ID = 260
   2.066859 1  105             Rx   d 8 10 27 00 00 00 00 00 37  Length = 239910 BitCount = 124 ID = 261
   2.067147 1  18E00000x       Rx   d 8 00 03 E7 03 2A 00 22 0F  Length = 279910 BitCount = 144 ID = 417333248x
   2.067433 1  18E00100x       Rx   d 8 03 24 00 01 01 00 50 01  Length = 277911 BitCount = 143 ID = 417333504x
   2.086188 1  102             Rx   d 8 04 03 1C 00 00 00 00 23  Length = 233925 BitCount = 121 ID = 258
   2.086426 1  103             Rx   d 8 FF FF 2C 04 6E 00 00 9C  Length = 229910 BitCount = 119 ID = 259
   2.086670 1  104             Rx   d 8 D2 19 00 00 00 00 00 EB  Length = 235926 BitCount = 122 ID = 260
   2.086919 1  105             Rx   d 8 10 27 00 00 00 00 00 37  Length = 239911 BitCount = 124 ID = 261
   2.087209 1  18E00000x       Rx   d 8 00 03 E7 03 23 00 22 0F  Length = 281926 BitCount = 145 ID = 417333248x
   2.087495 1  18E00100x       Rx   d 8 03 24 00 01 01 00 50 01  Length = 277911 BitCount = 143 ID = 417333504x
   2.106232 1  102             Rx   d 8 04 03 1C 00 00 00 00 23  Length = 233910 BitCount = 121 ID = 258
   2.106470 1  103             Rx   d 8 FF FF 2C 04 6E 00 00 9C  Length = 229910 BitCount = 119 ID = 259
   2.106714 1  104             Rx   d 8 D2 19 00 00 00 00 00 EB  Length = 235910 BitCount = 122 ID = 260
   2.106963 1  105             Rx   d 8 10 27 00 00 00 00 00 37  Length = 239911 BitCount = 124 ID = 261
   2.107251 1  18E00000x       Rx   d 8 00 03 E7 03 2A 00 22 0F  Length = 279910 BitCount = 144 ID = 417333248x
   2.107537 1  18E00100x       Rx   d 8 03 24 00 01 01 00 50 01  Length = 277910 BitCount = 143 ID = 417333504x
   2.121056 1  221             Rx   d 8 00 45 00 07 05 00 00 4E  Length = 231910 BitCount = 120 ID = 545
   2.124217 1  303             Rx   d 8 03 03 01 02 00 00 00 00  Length = 239910 BitCount = 124 ID = 771
   2.124455 1  302             Rx   d 8 18 05 05 00 10 34 3B 00  Length = 229910 BitCount = 119 ID = 770
   2.124705 1  304             Rx   d 8 05 00 00 00 00 00 00 00  Length = 241910 BitCount = 125 ID = 772
   2.125619 1  201             Rx   d 8 00 00 C8 00 00 00 07 CF  Length = 237910 BitCount = 123 ID = 513
   2.125865 1  202             Rx   d 8 09 01 00 00 00 00 00 0A  Length = 237911 BitCount = 123 ID = 514
   2.126103 1  203             Rx   d 8 80 0D CF C3 03 F1 38 3C  Length = 229926 BitCount = 119 ID = 515
   2.131192 1  102             Rx   d 8 04 03 1C 00 00 00 00 23  Length = 233911 BitCount = 121 ID = 258
   2.131430 1  103             Rx   d 8 FF FF 2C 04 6E 00 00 9C  Length = 229910 BitCount = 119 ID = 259
   2.131674 1  104             Rx   d 8 D2 19 00 00 00 00 00 EB  Length = 235926 BitCount = 122 ID = 260
   2.131922 1  105             Rx   d 8 10 27 00 00 00 00 00 37  Length = 239911 BitCount = 124 ID = 261
   2.132210 1  18E00000x       Rx   d 8 00 03 E7 03 2A 00 22 0F  Length = 279926 BitCount = 144 ID = 417333248x
   2.132497 1  18E00100x       Rx   d 8 03 24 00 01 01 00 50 01  Length = 277910 BitCount = 143 ID = 417333504x
   2.139036 1  311             Rx   d 8 02 00 00 00 4C 00 CB 02  Length = 231926 BitCount = 120 ID = 785
   2.146321 1  102             Rx   d 8 04 03 1C 00 00 00 00 23  Length = 233926 BitCount = 121 ID = 258
   2.146559 1  103             Rx   d 8 FF FF 2C 04 6E 00 00 9C  Length = 229910 BitCount = 119 ID = 259
   2.146803 1  104             Rx   d 8 D2 19 00 00 00 00 00 EB  Length = 235925 BitCount = 122 ID = 260
   2.147051 1  105             Rx   d 8 10 27 00 00 00 00 00 37  Length = 239910 BitCount = 124 ID = 261
   2.147341 1  18E00000x       Rx   d 8 00 03 E7 03 2A 00 24 0F  Length = 281926 BitCount = 145 ID = 417333248x
   2.147628 1  18E00100x       Rx   d 8 03 24 00 01 01 00 50 01  Length = 277910 BitCount = 143 ID = 417333504x
   2.149042 1  112             Rx   d 8 00 00 3A 34 00 00 00 00  Length = 235926 BitCount = 122 ID = 274
   2.159047 1  113             Rx   d 8 01 01 00 00 00 00 00 00  Length = 239926 BitCount = 124 ID = 275
   2.166374 1  102             Rx   d 8 04 03 1C 00 00 00 00 23  Length = 233911 BitCount = 121 ID = 258
   2.166612 1  103             Rx   d 8 FF FF 2C 04 6E 00 00 9C  Length = 229910 BitCount = 119 ID = 259
   2.166856 1  104             Rx   d 8 D2 19 00 00 00 00 00 EB  Length = 235910 BitCount = 122 ID = 260
   2.167104 1  105             Rx   d 8 10 27 00 00 00 00 00 37  Length = 239910 BitCount = 124 ID = 261
   2.167392 1  18E00000x       Rx   d 8 00 03 E7 03 2A 00 22 0F  Length = 279910 BitCount = 144 ID = 417333248x
   2.167679 1  18E00100x       Rx   d 8 03 24 00 01 01 00 50 01  Length = 277911 BitCount = 143 ID = 417333504x
   2.186424 1  102             Rx   d 8 04 03 1C 00 00 00 00 23  Length = 233910 BitCount = 121 ID = 258
   2.186662 1  103             Rx   d 8 FF FF 2C 04 6E 00 00 9C  Length = 229926 BitCount = 119 ID = 259
   2.186906 1  104             Rx   d 8 D2 19 00 00 00 00 00 EB  Length = 235910 BitCount = 122 ID = 260
   2.187154 1  105             Rx   d 8 10 27 00 00 00 00 00 37  Length = 239925 BitCount = 124 ID = 261
   2.187442 1  18E00000x       Rx   d 8 00 03 E7 03 2A 00 26 0F  Length = 279910 BitCount = 144 ID = 417333248x
   2.187729 1  18E00100x       Rx   d 8 03 24 00 01 01 00 50 01  Length = 277926 BitCount = 143 ID = 417333504x
   2.193054 1  315             Rx   d 8 05 05 03 03 02 00 03 03  Length = 231910 BitCount = 120 ID = 789
   2.206471 1  102             Rx   d 8 04 03 1C 00 00 00 00 23  Length = 233910 BitCount = 121 ID = 258
   2.206710 1  103             Rx   d 8 FF FF 2C 04 6E 00 00 9C  Length = 229911 BitCount = 119 ID = 259
   2.206954 1  104             Rx   d 8 D2 19 00 00 00 00 00 EB  Length = 235910 BitCount = 122 ID = 260
   2.207202 1  105             Rx   d 8 10 27 00 00 00 00 00 37  Length = 239910 BitCount = 124 ID = 261
   2.207490 1  18E00000x       Rx   d 8 00 03 E7 03 2A 00 22 0F  Length = 279910 BitCount = 144 ID = 417333248x
   2.207776 1  18E00100x       Rx   d 8 03 24 00 01 01 00 50 01  Length = 277910 BitCount = 143 ID = 417333504x
   2.221090 1  221             Rx   d 8 00 45 00 07 05 00 00 4E  Length = 231911 BitCount = 120 ID = 545
   2.225834 1  204             Rx   d 8 E0 35 35 35 36 FF FF FF  Length = 229910 BitCount = 119 ID = 516
   2.226072 1  205             Rx   d 8 23 0F 12 0C 0F 05 00 00  Length = 229926 BitCount = 119 ID = 517
   2.226314 1  206             Rx   d 8 36 04 35 02 00 00 00 00  Length = 233911 BitCount = 121 ID = 518
   2.227491 1  102             Rx   d 8 04 03 1C 00 00 00 00 23  Length = 233910 BitCount = 121 ID = 258
   2.227729 1  103             Rx   d 8 FF FF 2C 04 6E 00 00 9C  Length = 229910 BitCount = 119 ID = 259
   2.227973 1  104             Rx   d 8 D2 19 00 00 00 00 00 EB  Length = 235910 BitCount = 122 ID = 260
   2.228221 1  105             Rx   d 8 10 27 00 00 00 00 00 37  Length = 239911 BitCount = 124 ID = 261
   2.228509 1  18E00000x       Rx   d 8 00 03 E7 03 2A 00 22 0F  Length = 279910 BitCount = 144 ID = 417333248x
   2.228795 1  18E00100x       Rx   d 8 03 24 00 01 01 00 50 01  Length = 277910 BitCount = 143 ID = 417333504x
   2.240033 1  311             Rx   d 8 02 00 00 00 4C 00 CB 02  Length = 231910 BitCount = 120 ID = 785
   2.246533 1  102             Rx   d 8 04 03 1C 00 00 00 00 23  Length = 233911 BitCount = 121 ID = 258
   2.246772 1  103             Rx   d 8 FF FF 2C 04 6E 00 00 9C  Length = 229926 BitCount = 119 ID = 259
   2.247016 1  104             Rx   d 8 D2 19 00 00 00 00 00 EB  Length = 235910 BitCount = 122 ID = 260
   2.247264 1  105             Rx   d 8 10 27 00 00 00 00 00 37  Length = 239926 BitCount = 124 ID = 261
   2.247552 1  18E00000x       Rx   d 8 00 03 E7 03 2A 00 22 0F  Length = 279910 BitCount = 144 ID = 417333248x
   2.247838 1  18E00100x       Rx   d 8 03 24 00 01 01 00 50 01  Length = 277925 BitCount = 143 ID = 417333504x
   2.250036 1  112             Rx   d 8 00 00 3A 34 00 00 00 00  Length = 235910 BitCount = 122 ID = 274
   2.260042 1  113             Rx   d 8 01 01 00 00 00 00 00 00  Length = 239910 BitCount = 124 ID = 275
   2.262030 1  317             Rx   d 8 50 35 25 32 33 00 00 00  Length = 227911 BitCount = 118 ID = 791
   2.266588 1  102             Rx   d 8 04 03 1C 00 00 00 00 23  Length = 233911 BitCount = 121 ID = 258
   2.266826 1  103             Rx   d 8 FF FF 2C 04 6E 00 00 9C  Length = 229910 BitCount = 119 ID = 259
   2.267070 1  104             Rx   d 8 D2 19 00 00 00 00 00 EB  Length = 235910 BitCount = 122 ID = 260
   2.267319 1  105             Rx   d 8 10 27 00 00 00 00 00 37  Length = 239911 BitCount = 124 ID = 261
   2.267609 1  18E00000x       Rx   d 8 00 03 E7 03 2A 00 24 0F  Length = 281910 BitCount = 145 ID = 417333248x
   2.267895 1  18E00100x       Rx   d 8 03 24 00 01 01 00 50 01  Length = 277910 BitCount = 143 ID = 417333504x
   2.286652 1  102             Rx   d 8 04 03 1C 00 00 00 00 23  Length = 233926 BitCount = 121 ID = 258
   2.286890 1  103             Rx   d 8 FF FF 2C 04 6E 00 00 9C  Length = 229911 BitCount = 119 ID = 259
   2.287134 1  104             Rx   d 8 D2 19 00 00 00 00 00 EB  Length = 235910 BitCount = 122 ID = 260
   2.287383 1  105             Rx   d 8 10 27 00 00 00 00 00 37  Length = 239910 BitCount = 124 ID = 261
   2.287673 1  18E00000x       Rx   d 8 00 03 E7 03 1E 00 26 0F  Length = 281911 BitCount = 145 ID = 417333248x
   2.287959 1  18E00100x       Rx   d 8 03 24 00 01 01 00 50 01  Length = 277910 BitCount = 143 ID = 417333504x
   2.306700 1  102             Rx   d 8 04 03 1C 00 00 00 00 23  Length = 233910 BitCount = 121 ID = 258
   2.306938 1  103             Rx   d 8 FF FF 2C 04 6E 00 00 9C  Length = 229926 BitCount = 119 ID = 259
   2.307182 1  104             Rx   d 8 D2 19 00 00 00 00 00 EB  Length = 235910 BitCount = 122 ID = 260
   2.307431 1  105             Rx   d 8 10 27 00 00 00 00 00 37  Length = 239926 BitCount = 124 ID = 261
   2.307719 1  18E00000x       Rx   d 8 00 03 E7 03 2A 00 22 0F  Length = 279911 BitCount = 144 ID = 417333248x
   2.308005 1  18E00100x       Rx   d 8 03 24 00 01 01 00 50 01  Length = 277910 BitCount = 143 ID = 417333504x
   2.321048 1  221             Rx   d 8 00 45 00 07 05 00 00 4E  Length = 231911 BitCount = 120 ID = 545
   2.322689 1  18E00001x       Rx   d 8 77 00 2C 04 F3 01 2C 04  Length = 271910 BitCount = 140 ID = 417333249x
   2.323679 1  305             Rx   d 8 00 33 01 22 08 02 02 00  Length = 233910 BitCount = 121 ID = 773
   2.323917 1  306             Rx   d 8 00 33 01 22 08 03 01 01  Length = 229911 BitCount = 119 ID = 774
   2.324207 1  18E0000Bx       Rx   d 8 00 00 00 00 00 00 01 00  Length = 281910 BitCount = 145 ID = 417333259x
   2.324673 1  303             Rx   d 8 03 03 01 02 00 00 00 00  Length = 239910 BitCount = 124 ID = 771
   2.324911 1  302             Rx   d 8 18 05 05 00 10 34 3B 00  Length = 229910 BitCount = 119 ID = 770
   2.325145 1  304             Rx   d 8 01 30 33 4E 4D 45 30 38  Length = 225911 BitCount = 117 ID = 772
