date Sam Apr 27 18:19:21.426 2024
base hex  timestamps absolute
internal events logged
// version 15.4.0
// Measurement UUID: 937fdc33-292b-48e0-9b43-b7b8a3f1693b
Begin TriggerBlock Sam Apr 27 18:19:21.426 2024
   0.000000 Start of measurement
   0.008923 1  12              Rx   d 8 00 00 00 00 02 00 00 02  Length = 243910 BitCount = 126 ID = 18
   0.010265 CAN 1 Status:chip status error active
   0.010265 CAN 2 Status:chip status error active
   0.017042 1  102             Rx   d 8 25 03 00 00 00 00 00 28  Length = 237910 BitCount = 123 ID = 258
   0.017292 1  103             Rx   d 8 00 00 00 00 00 00 00 00  Length = 241911 BitCount = 125 ID = 259
   0.017540 1  104             Rx   d 8 B2 20 00 00 00 00 00 D2  Length = 239910 BitCount = 124 ID = 260
   0.017788 1  105             Rx   d 8 10 27 00 00 00 00 00 37  Length = 239910 BitCount = 124 ID = 261
   0.018079 1  18E00000x       Rx   d 8 00 07 E7 03 9C 0F C2 0F  Length = 281910 BitCount = 145 ID = 417333248x
   0.018365 1  18E00100x       Rx   d 8 07 20 00 01 01 00 50 01  Length = 277910 BitCount = 143 ID = 417333504x
   0.029914 1  12              Rx   d 8 00 00 00 00 02 00 00 02  Length = 243910 BitCount = 126 ID = 18
   0.036427 1  204             Rx   d 8 22 FF FF FF FF FF FF FF  Length = 241926 BitCount = 125 ID = 516
   0.036667 1  205             Rx   d 8 C6 0F 12 B0 0F 05 00 00  Length = 231910 BitCount = 120 ID = 517
   0.036913 1  206             Rx   d 8 38 01 37 02 00 00 00 00  Length = 237926 BitCount = 123 ID = 518
   0.041998 1  102             Rx   d 8 25 03 00 00 00 00 00 28  Length = 237910 BitCount = 123 ID = 258
   0.042248 1  103             Rx   d 8 00 00 00 00 00 00 00 00  Length = 241911 BitCount = 125 ID = 259
   0.042496 1  104             Rx   d 8 B2 20 00 00 00 00 00 D2  Length = 239910 BitCount = 124 ID = 260
   0.042744 1  105             Rx   d 8 10 27 00 00 00 00 00 37  Length = 239910 BitCount = 124 ID = 261
   0.043026 1  18E00000x       Rx   d 8 00 07 E7 03 AD 0F C5 0F  Length = 273911 BitCount = 141 ID = 417333248x
   0.043312 1  18E00100x       Rx   d 8 07 20 00 01 01 00 50 01  Length = 277910 BitCount = 143 ID = 417333504x
   0.050914 1  12              Rx   d 8 00 00 00 00 02 00 00 02  Length = 243911 BitCount = 126 ID = 18
   0.057131 1  102             Rx   d 8 25 03 00 00 00 00 00 28  Length = 237910 BitCount = 123 ID = 258
   0.057381 1  103             Rx   d 8 00 00 00 00 00 00 00 00  Length = 241910 BitCount = 125 ID = 259
   0.057629 1  104             Rx   d 8 B2 20 00 00 00 00 00 D2  Length = 239910 BitCount = 124 ID = 260
   0.057877 1  105             Rx   d 8 10 27 00 00 00 00 00 37  Length = 239910 BitCount = 124 ID = 261
   0.058161 1  18E00000x       Rx   d 8 00 07 E7 03 C4 0F C5 0F  Length = 275911 BitCount = 142 ID = 417333248x
   0.058447 1  18E00100x       Rx   d 8 07 20 00 01 01 00 50 01  Length = 277910 BitCount = 143 ID = 417333504x
   0.077197 1  102             Rx   d 8 25 03 00 00 00 00 00 28  Length = 237910 BitCount = 123 ID = 258
   0.077447 1  103             Rx   d 8 00 00 00 00 00 00 00 00  Length = 241926 BitCount = 125 ID = 259
   0.077695 1  104             Rx   d 8 B2 20 00 00 00 00 00 D2  Length = 239910 BitCount = 124 ID = 260
   0.077943 1  105             Rx   d 8 10 27 00 00 00 00 00 37  Length = 239926 BitCount = 124 ID = 261
   0.078231 1  18E00000x       Rx   d 8 00 07 E7 03 CE 0F C2 0F  Length = 279910 BitCount = 144 ID = 417333248x
   0.078517 1  18E00100x       Rx   d 8 07 20 00 01 01 00 50 01  Length = 277926 BitCount = 143 ID = 417333504x
   0.081907 1  311             Rx   d 8 02 00 00 00 29 00 CB 02  Length = 229910 BitCount = 119 ID = 785
   0.084921 1  12              Rx   d 8 00 00 00 00 02 00 00 02  Length = 243911 BitCount = 126 ID = 18
   0.091909 1  112             Rx   d 8 00 00 3C 37 00 00 00 00  Length = 235910 BitCount = 122 ID = 274
   0.097246 1  102             Rx   d 8 25 03 00 00 00 00 00 28  Length = 237926 BitCount = 123 ID = 258
   0.097496 1  103             Rx   d 8 00 00 00 00 00 00 00 00  Length = 241911 BitCount = 125 ID = 259
   0.097744 1  104             Rx   d 8 B2 20 00 00 00 00 00 D2  Length = 239926 BitCount = 124 ID = 260
   0.097992 1  105             Rx   d 8 10 27 00 00 00 00 00 37  Length = 239910 BitCount = 124 ID = 261
   0.098286 1  18E00000x       Rx   d 8 00 07 E7 03 E0 0F C2 0F  Length = 285926 BitCount = 147 ID = 417333248x
   0.098573 1  18E00100x       Rx   d 8 07 20 00 01 01 00 50 01  Length = 277910 BitCount = 143 ID = 417333504x
   0.101915 1  113             Rx   d 8 01 00 00 00 00 00 00 00  Length = 239910 BitCount = 124 ID = 275
   0.105913 1  12              Rx   d 8 00 00 00 00 02 00 00 02  Length = 243926 BitCount = 126 ID = 18
   0.117305 1  102             Rx   d 8 25 03 00 00 00 00 00 28  Length = 237911 BitCount = 123 ID = 258
   0.117555 1  103             Rx   d 8 00 00 00 00 00 00 00 00  Length = 241910 BitCount = 125 ID = 259
   0.117804 1  104             Rx   d 8 B2 20 00 00 00 00 00 D2  Length = 239910 BitCount = 124 ID = 260
   0.118052 1  105             Rx   d 8 10 27 00 00 00 00 00 37  Length = 239911 BitCount = 124 ID = 261
   0.118342 1  18E00000x       Rx   d 8 00 07 E7 03 F1 0F C2 0F  Length = 281910 BitCount = 145 ID = 417333248x
   0.118628 1  18E00100x       Rx   d 8 07 20 00 01 01 00 50 01  Length = 277910 BitCount = 143 ID = 417333504x
   0.126912 1  12              Rx   d 8 00 00 00 00 02 00 00 02  Length = 243910 BitCount = 126 ID = 18
   0.135282 1  303             Rx   d 8 03 03 01 02 00 00 00 00  Length = 239926 BitCount = 124 ID = 771
   0.135527 1  302             Rx   d 8 18 04 1C 00 00 16 02 00  Length = 235910 BitCount = 122 ID = 770
   0.135759 1  304             Rx   d 8 02 54 51 4C 30 30 31 47  Length = 223926 BitCount = 116 ID = 772
   0.136659 1  201             Rx   d 8 00 00 C8 00 00 00 07 CF  Length = 237910 BitCount = 123 ID = 513
   0.136907 1  202             Rx   d 8 08 01 00 00 00 00 00 09  Length = 239910 BitCount = 124 ID = 514
   0.137145 1  203             Rx   d 8 82 C4 4F F1 03 FB E4 3E  Length = 229911 BitCount = 119 ID = 515
   0.138385 1  102             Rx   d 8 25 03 00 00 00 00 00 28  Length = 237910 BitCount = 123 ID = 258
   0.138636 1  103             Rx   d 8 00 00 00 00 00 00 00 00  Length = 241910 BitCount = 125 ID = 259
   0.138884 1  104             Rx   d 8 B2 20 00 00 00 00 00 D2  Length = 239910 BitCount = 124 ID = 260
   0.139132 1  105             Rx   d 8 10 27 00 00 00 00 00 37  Length = 239911 BitCount = 124 ID = 261
   0.139422 1  18E00000x       Rx   d 8 00 07 E7 03 00 10 C2 0F  Length = 281910 BitCount = 145 ID = 417333248x
   0.139708 1  18E00100x       Rx   d 8 07 20 00 01 01 00 50 01  Length = 277926 BitCount = 143 ID = 417333504x
   0.147910 1  12              Rx   d 8 00 00 00 00 02 00 00 02  Length = 243910 BitCount = 126 ID = 18
   0.155892 1  317             Rx   d 8 50 35 15 32 33 00 00 00  Length = 223910 BitCount = 116 ID = 791
   0.157386 1  102             Rx   d 8 25 03 00 00 00 00 00 28  Length = 237910 BitCount = 123 ID = 258
   0.157636 1  103             Rx   d 8 00 00 00 00 00 00 00 00  Length = 241911 BitCount = 125 ID = 259
   0.157884 1  104             Rx   d 8 B2 20 00 00 00 00 00 D2  Length = 239910 BitCount = 124 ID = 260
   0.158132 1  105             Rx   d 8 10 27 00 00 00 00 00 37  Length = 239910 BitCount = 124 ID = 261
   0.158413 1  18E00000x       Rx   d 8 00 07 E7 03 12 10 C5 0F  Length = 271910 BitCount = 140 ID = 417333248x
   0.158699 1  18E00100x       Rx   d 8 07 20 00 01 01 00 50 01  Length = 277910 BitCount = 143 ID = 417333504x
   0.168916 1  12              Rx   d 8 00 00 00 00 02 00 00 02  Length = 243910 BitCount = 126 ID = 18
   0.177449 1  102             Rx   d 8 25 03 00 00 00 00 00 28  Length = 237911 BitCount = 123 ID = 258
   0.177699 1  103             Rx   d 8 00 00 00 00 00 00 00 00  Length = 241926 BitCount = 125 ID = 259
   0.177947 1  104             Rx   d 8 B2 20 00 00 00 00 00 D2  Length = 239910 BitCount = 124 ID = 260
   0.178196 1  105             Rx   d 8 10 27 00 00 00 00 00 37  Length = 239926 BitCount = 124 ID = 261
   0.178476 1  18E00000x       Rx   d 8 00 07 E7 03 26 10 C9 0F  Length = 271910 BitCount = 140 ID = 417333248x
   0.178762 1  18E00100x       Rx   d 8 07 20 00 01 01 00 50 01  Length = 277926 BitCount = 143 ID = 417333504x
   0.195897 1  311             Rx   d 8 02 00 00 00 28 00 CB 02  Length = 231926 BitCount = 120 ID = 785
   0.197488 1  102             Rx   d 8 25 03 00 00 00 00 00 28  Length = 237926 BitCount = 123 ID = 258
   0.197738 1  103             Rx   d 8 00 00 00 00 00 00 00 00  Length = 241910 BitCount = 125 ID = 259
   0.197986 1  104             Rx   d 8 B2 20 00 00 00 00 00 D2  Length = 239926 BitCount = 124 ID = 260
   0.198234 1  105             Rx   d 8 10 27 00 00 00 00 00 37  Length = 239911 BitCount = 124 ID = 261
   0.198520 1  18E00000x       Rx   d 8 00 07 E7 03 30 10 C2 0F  Length = 277926 BitCount = 143 ID = 417333248x
   0.198806 1  18E00100x       Rx   d 8 07 20 00 01 01 00 50 01  Length = 277910 BitCount = 143 ID = 417333504x
   0.202906 1  12              Rx   d 8 00 00 00 00 02 00 00 02  Length = 243926 BitCount = 126 ID = 18
   0.205902 1  112             Rx   d 8 00 00 3C 37 00 00 00 00  Length = 235910 BitCount = 122 ID = 274
   0.215924 1  113             Rx   d 8 01 00 00 00 00 00 00 00  Length = 239910 BitCount = 124 ID = 275
   0.217530 1  102             Rx   d 8 25 03 00 00 00 00 00 28  Length = 237910 BitCount = 123 ID = 258
   0.217780 1  103             Rx   d 8 00 00 00 00 00 00 00 00  Length = 241926 BitCount = 125 ID = 259
   0.218029 1  104             Rx   d 8 B2 20 00 00 00 00 00 D2  Length = 239911 BitCount = 124 ID = 260
   0.218277 1  105             Rx   d 8 10 27 00 00 00 00 00 37  Length = 239926 BitCount = 124 ID = 261
   0.218563 1  18E00000x       Rx   d 8 00 07 E7 03 49 10 C2 0F  Length = 277910 BitCount = 143 ID = 417333248x
   0.218849 1  18E00100x       Rx   d 8 07 20 00 01 01 00 50 01  Length = 277911 BitCount = 143 ID = 417333504x
   0.219913 1  315             Rx   d 8 05 05 03 03 01 00 03 03  Length = 231926 BitCount = 120 ID = 789
   0.223903 1  12              Rx   d 8 00 00 00 00 02 00 00 02  Length = 243910 BitCount = 126 ID = 18
   0.236914 1  204             Rx   d 8 E0 38 37 38 38 FF FF FF  Length = 231910 BitCount = 120 ID = 516
   0.237154 1  205             Rx   d 8 C6 0F 12 B0 0F 05 00 00  Length = 231910 BitCount = 120 ID = 517
   0.237400 1  206             Rx   d 8 38 01 37 02 00 00 00 00  Length = 237910 BitCount = 123 ID = 518
   0.242479 1  102             Rx   d 8 25 03 00 00 00 00 00 28  Length = 237911 BitCount = 123 ID = 258
   0.242729 1  103             Rx   d 8 00 00 00 00 00 00 00 00  Length = 241910 BitCount = 125 ID = 259
   0.242977 1  104             Rx   d 8 B2 20 00 00 00 00 00 D2  Length = 239926 BitCount = 124 ID = 260
   0.243225 1  105             Rx   d 8 10 27 00 00 00 00 00 37  Length = 239910 BitCount = 124 ID = 261
   0.243509 1  18E00000x       Rx   d 8 00 07 E7 03 5B 10 C2 0F  Length = 275910 BitCount = 142 ID = 417333248x
   0.243795 1  18E00100x       Rx   d 8 07 20 00 01 01 00 50 01  Length = 277911 BitCount = 143 ID = 417333504x
   0.244897 1  12              Rx   d 8 00 00 00 00 02 00 00 02  Length = 243926 BitCount = 126 ID = 18
   0.257644 1  102             Rx   d 8 25 03 00 00 00 00 00 28  Length = 237911 BitCount = 123 ID = 258
   0.257894 1  103             Rx   d 8 00 00 00 00 00 00 00 00  Length = 241910 BitCount = 125 ID = 259
   0.258143 1  104             Rx   d 8 B2 20 00 00 00 00 00 D2  Length = 239910 BitCount = 124 ID = 260
   0.258391 1  105             Rx   d 8 10 27 00 00 00 00 00 37  Length = 239911 BitCount = 124 ID = 261
   0.258671 1  18E00000x       Rx   d 8 00 07 E7 03 6D 10 C5 0F  Length = 271910 BitCount = 140 ID = 417333248x
   0.258957 1  18E00100x       Rx   d 8 07 20 00 01 01 00 50 01  Length = 277910 BitCount = 143 ID = 417333504x
   0.265913 1  12              Rx   d 8 00 00 00 00 02 00 00 02  Length = 243910 BitCount = 126 ID = 18
   0.277698 1  102             Rx   d 8 25 03 00 00 00 00 00 28  Length = 237910 BitCount = 123 ID = 258
   0.277948 1  103             Rx   d 8 00 00 00 00 00 00 00 00  Length = 241910 BitCount = 125 ID = 259
   0.278196 1  104             Rx   d 8 B2 20 00 00 00 00 00 D2  Length = 239911 BitCount = 124 ID = 260
   0.278444 1  105             Rx   d 8 10 27 00 00 00 00 00 37  Length = 239910 BitCount = 124 ID = 261
   0.278728 1  18E00000x       Rx   d 8 00 07 E7 03 81 10 C5 0F  Length = 275910 BitCount = 142 ID = 417333248x
   0.279014 1  18E00100x       Rx   d 8 07 20 00 01 01 00 50 01  Length = 277926 BitCount = 143 ID = 417333504x
   0.286910 1  12              Rx   d 8 00 00 00 00 02 00 00 02  Length = 243910 BitCount = 126 ID = 18
   0.297729 1  102             Rx   d 8 25 03 00 00 00 00 00 28  Length = 237926 BitCount = 123 ID = 258
   0.297979 1  103             Rx   d 8 00 00 00 00 00 00 00 00  Length = 241911 BitCount = 125 ID = 259
   0.298227 1  104             Rx   d 8 B2 20 00 00 00 00 00 D2  Length = 239926 BitCount = 124 ID = 260
   0.298476 1  105             Rx   d 8 10 27 00 00 00 00 00 37  Length = 239910 BitCount = 124 ID = 261
   0.298758 1  18E00000x       Rx   d 8 00 07 E7 03 90 10 C9 0F  Length = 273926 BitCount = 141 ID = 417333248x
   0.299044 1  18E00100x       Rx   d 8 07 20 00 01 01 00 50 01  Length = 277911 BitCount = 143 ID = 417333504x
   0.309897 1  311             Rx   d 8 02 00 00 00 28 00 CB 02  Length = 231926 BitCount = 120 ID = 785
   0.317784 1  102             Rx   d 8 25 03 00 00 00 00 00 28  Length = 237910 BitCount = 123 ID = 258
   0.318034 1  103             Rx   d 8 00 00 00 00 00 00 00 00  Length = 241926 BitCount = 125 ID = 259
   0.318282 1  104             Rx   d 8 B2 20 00 00 00 00 00 D2  Length = 239910 BitCount = 124 ID = 260
   0.318531 1  105             Rx   d 8 10 27 00 00 00 00 00 37  Length = 239926 BitCount = 124 ID = 261
   0.318817 1  18E00000x       Rx   d 8 00 07 E7 03 A1 10 C2 0F  Length = 277911 BitCount = 143 ID = 417333248x
   0.319103 1  18E00100x       Rx   d 8 07 20 00 01 01 00 50 01  Length = 277910 BitCount = 143 ID = 417333504x
   0.319905 1  112             Rx   d 8 00 00 3C 37 00 00 00 00  Length = 235910 BitCount = 122 ID = 274
   0.320909 1  12              Rx   d 8 00 00 00 00 02 00 00 02  Length = 243910 BitCount = 126 ID = 18
   0.329909 1  113             Rx   d 8 01 00 00 00 00 00 00 00  Length = 239910 BitCount = 124 ID = 275
   0.335791 1  303             Rx   d 8 03 03 01 02 00 00 00 00  Length = 239926 BitCount = 124 ID = 771
   0.336035 1  302             Rx   d 8 18 04 1C 00 00 16 02 00  Length = 235910 BitCount = 122 ID = 770
   0.336272 1  304             Rx   d 8 03 44 35 4E 30 30 30 30  Length = 227926 BitCount = 118 ID = 772
   0.337176 1  201             Rx   d 8 00 00 C8 00 00 00 07 CF  Length = 237910 BitCount = 123 ID = 513
   0.337424 1  202             Rx   d 8 08 01 00 00 00 00 00 09  Length = 239911 BitCount = 124 ID = 514
   0.337658 1  203             Rx   d 8 83 B6 8F EC 43 FB 14 3F  Length = 225910 BitCount = 117 ID = 515
   0.338824 1  102             Rx   d 8 25 03 00 00 00 00 00 28  Length = 237910 BitCount = 123 ID = 258
   0.339074 1  103             Rx   d 8 00 00 00 00 00 00 00 00  Length = 241910 BitCount = 125 ID = 259
   0.339322 1  104             Rx   d 8 B2 20 00 00 00 00 00 D2  Length = 239911 BitCount = 124 ID = 260
   0.339571 1  105             Rx   d 8 10 27 00 00 00 00 00 37  Length = 239910 BitCount = 124 ID = 261
   0.339851 1  18E00000x       Rx   d 8 00 07 E7 03 B3 10 C5 0F  Length = 271910 BitCount = 140 ID = 417333248x
   0.340137 1  18E00100x       Rx   d 8 07 20 00 01 01 00 50 01  Length = 277910 BitCount = 143 ID = 417333504x
   0.341913 1  12              Rx   d 8 00 02 00 00 02 00 00 00  Length = 239911 BitCount = 124 ID = 18
   0.357884 1  102             Rx   d 8 25 03 00 00 00 00 00 28  Length = 237910 BitCount = 123 ID = 258
   0.358134 1  103             Rx   d 8 00 00 00 00 00 00 00 00  Length = 241910 BitCount = 125 ID = 259
   0.358382 1  104             Rx   d 8 B2 20 00 00 00 00 00 D2  Length = 239911 BitCount = 124 ID = 260
   0.358631 1  105             Rx   d 8 10 27 00 00 00 00 00 37  Length = 239910 BitCount = 124 ID = 261
   0.358917 1  18E00000x       Rx   d 8 00 07 E7 03 C5 10 C2 0F  Length = 277910 BitCount = 143 ID = 417333248x
   0.359203 1  18E00100x       Rx   d 8 07 20 00 01 01 00 50 01  Length = 277911 BitCount = 143 ID = 417333504x
   0.362903 1  12              Rx   d 8 00 02 00 00 02 00 00 00  Length = 239910 BitCount = 124 ID = 18
   0.377932 1  102             Rx   d 8 25 03 00 00 00 00 00 28  Length = 237910 BitCount = 123 ID = 258
   0.378182 1  103             Rx   d 8 00 00 00 00 00 00 00 00  Length = 241911 BitCount = 125 ID = 259
   0.378430 1  104             Rx   d 8 B2 20 00 00 00 00 00 D2  Length = 239910 BitCount = 124 ID = 260
   0.378678 1  105             Rx   d 8 10 27 00 00 00 00 00 37  Length = 239910 BitCount = 124 ID = 261
   0.378964 1  18E00000x       Rx   d 8 00 07 E7 03 D6 10 C2 0F  Length = 277911 BitCount = 143 ID = 417333248x
   0.379251 1  18E00100x       Rx   d 8 07 20 00 01 01 00 50 01  Length = 277926 BitCount = 143 ID = 417333504x
   0.381909 1  318             Rx   d 8 02 00 00 00 00 00 00 00  Length = 239910 BitCount = 124 ID = 792
   0.383903 1  12              Rx   d 8 00 02 00 00 02 00 00 00  Length = 239926 BitCount = 124 ID = 18
   0.397982 1  102             Rx   d 8 25 03 00 00 00 00 00 28  Length = 237926 BitCount = 123 ID = 258
   0.398232 1  103             Rx   d 8 00 00 00 00 00 00 00 00  Length = 241910 BitCount = 125 ID = 259
   0.398480 1  104             Rx   d 8 B2 20 00 00 00 00 00 D2  Length = 239926 BitCount = 124 ID = 260
   0.398728 1  105             Rx   d 8 10 27 00 00 00 00 00 37  Length = 239911 BitCount = 124 ID = 261
   0.399012 1  18E00000x       Rx   d 8 00 07 E7 03 E3 10 C5 0F  Length = 275926 BitCount = 142 ID = 417333248x
   0.399298 1  18E00100x       Rx   d 8 07 20 00 01 01 00 50 01  Length = 277910 BitCount = 143 ID = 417333504x
   0.404900 1  12              Rx   d 8 00 02 00 00 02 00 00 00  Length = 239910 BitCount = 124 ID = 18
   0.418043 1  102             Rx   d 8 25 03 00 00 00 00 00 28  Length = 237910 BitCount = 123 ID = 258
   0.418293 1  103             Rx   d 8 00 00 00 00 00 00 00 00  Length = 241926 BitCount = 125 ID = 259
   0.418542 1  104             Rx   d 8 B2 20 00 00 00 00 00 D2  Length = 239910 BitCount = 124 ID = 260
   0.418790 1  105             Rx   d 8 10 27 00 00 00 00 00 37  Length = 239926 BitCount = 124 ID = 261
   0.419080 1  18E00000x       Rx   d 8 00 07 E7 03 FC 10 C2 0F  Length = 281910 BitCount = 145 ID = 417333248x
   0.419366 1  18E00100x       Rx   d 8 07 20 00 01 01 00 50 01  Length = 277910 BitCount = 143 ID = 417333504x
   0.423894 1  311             Rx   d 8 02 00 00 00 26 00 CB 02  Length = 231911 BitCount = 120 ID = 785
   0.433898 1  112             Rx   d 8 00 00 3C 37 00 00 00 00  Length = 235926 BitCount = 122 ID = 274
   0.435018 1  305             Rx   d 8 00 33 01 22 08 02 02 00  Length = 233910 BitCount = 121 ID = 773
   0.435256 1  306             Rx   d 8 00 33 01 22 08 03 01 01  Length = 229910 BitCount = 119 ID = 774
   0.435546 1  18E0000Bx       Rx   d 8 00 00 00 00 00 00 01 00  Length = 281911 BitCount = 145 ID = 417333259x
   0.437398 1  204             Rx   d 8 E1 FF 39 38 39 3B 40 FF  Length = 225911 BitCount = 117 ID = 516
   0.437638 1  205             Rx   d 8 C6 0F 12 B0 0F 05 00 00  Length = 231910 BitCount = 120 ID = 517
   0.437885 1  206             Rx   d 8 38 01 37 02 00 00 00 00  Length = 237910 BitCount = 123 ID = 518
   0.438901 1  12              Rx   d 8 00 02 00 00 02 00 00 00  Length = 239910 BitCount = 124 ID = 18
   0.443013 1  102             Rx   d 8 25 03 00 00 00 00 00 28  Length = 237926 BitCount = 123 ID = 258
   0.443263 1  103             Rx   d 8 00 00 00 00 00 00 00 00  Length = 241911 BitCount = 125 ID = 259
   0.443511 1  104             Rx   d 8 B2 20 00 00 00 00 00 D2  Length = 239910 BitCount = 124 ID = 260
   0.443759 1  105             Rx   d 8 10 27 00 00 00 00 00 37  Length = 239910 BitCount = 124 ID = 261
   0.444008 1  113             Rx   d 8 01 00 00 00 00 00 00 00  Length = 239910 BitCount = 124 ID = 275
   0.444294 1  18E00000x       Rx   d 8 00 07 E7 03 10 11 C2 0F  Length = 277910 BitCount = 143 ID = 417333248x
   0.444580 1  18E00100x       Rx   d 8 07 20 00 01 01 00 50 01  Length = 277910 BitCount = 143 ID = 417333504x
   0.446892 1  315             Rx   d 8 05 05 03 03 01 00 03 03  Length = 231910 BitCount = 120 ID = 789
   0.458123 1  102             Rx   d 8 25 03 00 00 00 00 00 28  Length = 237910 BitCount = 123 ID = 258
   0.458373 1  103             Rx   d 8 00 00 00 00 00 00 00 00  Length = 241910 BitCount = 125 ID = 259
   0.458621 1  104             Rx   d 8 B2 20 00 00 00 00 00 D2  Length = 239910 BitCount = 124 ID = 260
   0.458869 1  105             Rx   d 8 10 27 00 00 00 00 00 37  Length = 239910 BitCount = 124 ID = 261
   0.459157 1  18E00000x       Rx   d 8 00 07 E7 03 24 11 C2 0F  Length = 279911 BitCount = 144 ID = 417333248x
   0.459443 1  18E00100x       Rx   d 8 07 20 00 01 01 00 50 01  Length = 277910 BitCount = 143 ID = 417333504x
   0.459899 1  12              Rx   d 8 00 02 00 00 02 00 00 00  Length = 239910 BitCount = 124 ID = 18
   0.478183 1  102             Rx   d 8 25 03 00 00 00 00 00 28  Length = 237910 BitCount = 123 ID = 258
   0.478433 1  103             Rx   d 8 00 00 00 00 00 00 00 00  Length = 241910 BitCount = 125 ID = 259
   0.478681 1  104             Rx   d 8 B2 20 00 00 00 00 00 D2  Length = 239910 BitCount = 124 ID = 260
   0.478929 1  105             Rx   d 8 10 27 00 00 00 00 00 37  Length = 239911 BitCount = 124 ID = 261
   0.479211 1  18E00000x       Rx   d 8 00 07 E7 03 33 11 C5 0F  Length = 273910 BitCount = 141 ID = 417333248x
   0.479497 1  18E00100x       Rx   d 8 07 20 00 01 01 00 50 01  Length = 277910 BitCount = 143 ID = 417333504x
   0.480891 1  12              Rx   d 8 00 02 00 00 02 00 00 00  Length = 239911 BitCount = 124 ID = 18
   0.498237 1  102             Rx   d 8 25 03 00 00 00 00 00 28  Length = 237910 BitCount = 123 ID = 258
   0.498487 1  103             Rx   d 8 00 00 00 00 00 00 00 00  Length = 241910 BitCount = 125 ID = 259
   0.498735 1  104             Rx   d 8 B2 20 00 00 00 00 00 D2  Length = 239911 BitCount = 124 ID = 260
   0.498983 1  105             Rx   d 8 10 27 00 00 00 00 00 37  Length = 239910 BitCount = 124 ID = 261
   0.499265 1  18E00000x       Rx   d 8 00 07 E7 03 47 11 C5 0F  Length = 273910 BitCount = 141 ID = 417333248x
   0.499551 1  18E00100x       Rx   d 8 07 20 00 01 01 00 50 01  Length = 277911 BitCount = 143 ID = 417333504x
   0.501887 1  12              Rx   d 8 00 02 00 00 02 00 00 00  Length = 239910 BitCount = 124 ID = 18
   0.518289 1  102             Rx   d 8 25 03 00 00 00 00 00 28  Length = 237910 BitCount = 123 ID = 258
   0.518539 1  103             Rx   d 8 00 00 00 00 00 00 00 00  Length = 241926 BitCount = 125 ID = 259
   0.518787 1  104             Rx   d 8 B2 20 00 00 00 00 00 D2  Length = 239910 BitCount = 124 ID = 260
   0.519035 1  105             Rx   d 8 10 27 00 00 00 00 00 37  Length = 239926 BitCount = 124 ID = 261
   0.519321 1  18E00000x       Rx   d 8 00 07 E7 03 59 11 C2 0F  Length = 277911 BitCount = 143 ID = 417333248x
   0.519607 1  18E00100x       Rx   d 8 07 20 00 01 01 00 50 01  Length = 277926 BitCount = 143 ID = 417333504x
   0.535901 1  12              Rx   d 8 00 02 00 00 02 00 00 00  Length = 239910 BitCount = 124 ID = 18
   0.536291 1  303             Rx   d 8 03 03 01 02 00 00 00 00  Length = 239926 BitCount = 124 ID = 771
   0.536535 1  302             Rx   d 8 18 04 1C 00 00 16 02 00  Length = 235910 BitCount = 122 ID = 770
   0.536779 1  304             Rx   d 8 04 30 34 33 00 00 00 00  Length = 235926 BitCount = 122 ID = 772
   0.537685 1  201             Rx   d 8 00 00 C8 00 00 00 07 CF  Length = 237910 BitCount = 123 ID = 513
   0.537933 1  202             Rx   d 8 08 01 00 00 00 00 00 09  Length = 239911 BitCount = 124 ID = 514
   0.538166 1  203             Rx   d 8 84 C5 8F F1 43 FC 14 3F  Length = 223910 BitCount = 116 ID = 515
   0.538404 1  311             Rx   d 8 02 00 00 00 25 00 CB 02  Length = 229910 BitCount = 119 ID = 785
   0.539358 1  102             Rx   d 8 25 03 00 00 00 00 00 28  Length = 237910 BitCount = 123 ID = 258
   0.539608 1  103             Rx   d 8 00 00 00 00 00 00 00 00  Length = 241910 BitCount = 125 ID = 259
   0.539856 1  104             Rx   d 8 B2 20 00 00 00 00 00 D2  Length = 239910 BitCount = 124 ID = 260
   0.540104 1  105             Rx   d 8 10 27 00 00 00 00 00 37  Length = 239911 BitCount = 124 ID = 261
   0.540386 1  18E00000x       Rx   d 8 00 07 E7 03 6B 11 C7 0F  Length = 273910 BitCount = 141 ID = 417333248x
   0.540673 1  18E00100x       Rx   d 8 07 20 00 01 01 00 50 01  Length = 277910 BitCount = 143 ID = 417333504x
   0.547896 1  112             Rx   d 8 00 00 3C 37 00 00 00 00  Length = 235926 BitCount = 122 ID = 274
   0.556900 1  12              Rx   d 8 00 02 00 00 02 00 00 00  Length = 239911 BitCount = 124 ID = 18
   0.557908 1  113             Rx   d 8 01 00 00 00 00 00 00 00  Length = 239910 BitCount = 124 ID = 275
   0.558400 1  102             Rx   d 8 25 03 00 00 00 00 00 28  Length = 237910 BitCount = 123 ID = 258
   0.558651 1  103             Rx   d 8 00 00 00 00 00 00 00 00  Length = 241911 BitCount = 125 ID = 259
   0.558899 1  104             Rx   d 8 B2 20 00 00 00 00 00 D2  Length = 239910 BitCount = 124 ID = 260
   0.559147 1  105             Rx   d 8 10 27 00 00 00 00 00 37  Length = 239910 BitCount = 124 ID = 261
   0.559433 1  18E00000x       Rx   d 8 00 07 E7 03 7F 11 C2 0F  Length = 277910 BitCount = 143 ID = 417333248x
   0.559719 1  18E00100x       Rx   d 8 07 20 00 01 01 00 50 01  Length = 277910 BitCount = 143 ID = 417333504x
   0.577897 1  12              Rx   d 8 00 02 00 00 02 00 00 00  Length = 239910 BitCount = 124 ID = 18
   0.578427 1  102             Rx   d 8 25 03 00 00 00 00 00 28  Length = 237911 BitCount = 123 ID = 258
   0.578677 1  103             Rx   d 8 00 00 00 00 00 00 00 00  Length = 241910 BitCount = 125 ID = 259
   0.578925 1  104             Rx   d 8 B2 20 00 00 00 00 00 D2  Length = 239910 BitCount = 124 ID = 260
   0.579173 1  105             Rx   d 8 10 27 00 00 00 00 00 37  Length = 239910 BitCount = 124 ID = 261
   0.579453 1  18E00000x       Rx   d 8 00 07 E7 03 93 11 C7 0F  Length = 271910 BitCount = 140 ID = 417333248x
   0.579739 1  18E00100x       Rx   d 8 07 20 00 01 01 00 50 01  Length = 277911 BitCount = 143 ID = 417333504x
   0.598479 1  102             Rx   d 8 25 03 00 00 00 00 00 28  Length = 237910 BitCount = 123 ID = 258
   0.598729 1  103             Rx   d 8 00 00 00 00 00 00 00 00  Length = 241910 BitCount = 125 ID = 259
   0.598977 1  12              Rx   d 8 00 02 00 00 02 00 00 00  Length = 239910 BitCount = 124 ID = 18
   0.599225 1  104             Rx   d 8 B2 20 00 00 00 00 00 D2  Length = 239910 BitCount = 124 ID = 260
   0.599473 1  105             Rx   d 8 10 27 00 00 00 00 00 37  Length = 239911 BitCount = 124 ID = 261
   0.599757 1  18E00000x       Rx   d 8 00 07 E7 03 98 11 C5 0F  Length = 275910 BitCount = 142 ID = 417333248x
   0.600043 1  18E00100x       Rx   d 8 07 20 00 01 01 00 50 01  Length = 277910 BitCount = 143 ID = 417333504x
   0.618543 1  102             Rx   d 8 25 03 00 00 00 00 00 28  Length = 237910 BitCount = 123 ID = 258
   0.618793 1  103             Rx   d 8 00 00 00 00 00 00 00 00  Length = 241926 BitCount = 125 ID = 259
   0.619041 1  104             Rx   d 8 B2 20 00 00 00 00 00 D2  Length = 239910 BitCount = 124 ID = 260
   0.619289 1  105             Rx   d 8 10 27 00 00 00 00 00 37  Length = 239926 BitCount = 124 ID = 261
   0.619577 1  18E00000x       Rx   d 8 00 07 E7 03 BE 11 C2 0F  Length = 279910 BitCount = 144 ID = 417333248x
   0.619863 1  18E00100x       Rx   d 8 07 20 00 01 01 00 50 01  Length = 277926 BitCount = 143 ID = 417333504x
   0.620112 1  12              Rx   d 8 00 02 00 00 02 00 00 00  Length = 239926 BitCount = 124 ID = 18
   0.637923 1  204             Rx   d 8 22 FF FF FF FF FF FF FF  Length = 241910 BitCount = 125 ID = 516
   0.638163 1  205             Rx   d 8 C6 0F 12 B0 0F 05 00 00  Length = 231910 BitCount = 120 ID = 517
   0.638409 1  206             Rx   d 8 38 01 37 02 00 00 00 00  Length = 237910 BitCount = 123 ID = 518
   0.643684 1  102             Rx   d 8 25 03 00 00 00 00 00 28  Length = 237911 BitCount = 123 ID = 258
   0.643934 1  103             Rx   d 8 00 00 00 00 00 00 00 00  Length = 241910 BitCount = 125 ID = 259
   0.644182 1  104             Rx   d 8 B2 20 00 00 00 00 00 D2  Length = 239910 BitCount = 124 ID = 260
   0.644430 1  105             Rx   d 8 10 27 00 00 00 00 00 37  Length = 239910 BitCount = 124 ID = 261
   0.644718 1  18E00000x       Rx   d 8 00 07 E7 03 C0 11 C2 0F  Length = 279910 BitCount = 144 ID = 417333248x
   0.645004 1  18E00100x       Rx   d 8 07 20 00 01 01 00 50 01  Length = 277926 BitCount = 143 ID = 417333504x
   0.651890 1  311             Rx   d 8 02 00 00 00 24 00 CB 02  Length = 231911 BitCount = 120 ID = 785
   0.653896 1  12              Rx   d 8 00 02 00 00 02 00 00 00  Length = 239926 BitCount = 124 ID = 18
   0.658639 1  102             Rx   d 8 25 03 00 00 00 00 00 28  Length = 237911 BitCount = 123 ID = 258
   0.658889 1  103             Rx   d 8 00 00 00 00 00 00 00 00  Length = 241910 BitCount = 125 ID = 259
   0.659137 1  104             Rx   d 8 B2 20 00 00 00 00 00 D2  Length = 239910 BitCount = 124 ID = 260
   0.659385 1  105             Rx   d 8 10 27 00 00 00 00 00 37  Length = 239911 BitCount = 124 ID = 261
   0.659671 1  18E00000x       Rx   d 8 00 07 E7 03 DE 11 C2 0F  Length = 277910 BitCount = 143 ID = 417333248x
   0.659957 1  18E00100x       Rx   d 8 07 20 00 01 01 00 50 01  Length = 277910 BitCount = 143 ID = 417333504x
   0.661893 1  112             Rx   d 8 00 00 3C 37 00 00 00 00  Length = 235926 BitCount = 122 ID = 274
   0.671901 1  113             Rx   d 8 01 00 00 00 00 00 00 00  Length = 239910 BitCount = 124 ID = 275
   0.673885 1  315             Rx   d 8 05 05 03 03 01 00 03 03  Length = 231910 BitCount = 120 ID = 789
   0.674893 1  12              Rx   d 8 00 02 00 00 02 00 00 00  Length = 239911 BitCount = 124 ID = 18
   0.678692 1  102             Rx   d 8 25 03 00 00 00 00 00 28  Length = 237910 BitCount = 123 ID = 258
   0.678942 1  103             Rx   d 8 00 00 00 00 00 00 00 00  Length = 241910 BitCount = 125 ID = 259
   0.679190 1  104             Rx   d 8 B2 20 00 00 00 00 00 D2  Length = 239911 BitCount = 124 ID = 260
   0.679438 1  105             Rx   d 8 10 27 00 00 00 00 00 37  Length = 239910 BitCount = 124 ID = 261
   0.679728 1  18E00000x       Rx   d 8 00 07 E7 03 F0 11 C2 0F  Length = 281910 BitCount = 145 ID = 417333248x
   0.680014 1  18E00100x       Rx   d 8 07 20 00 01 01 00 50 01  Length = 277910 BitCount = 143 ID = 417333504x
   0.695890 1  12              Rx   d 8 00 02 00 00 02 00 00 00  Length = 239926 BitCount = 124 ID = 18
   0.698752 1  102             Rx   d 8 25 03 00 00 00 00 00 28  Length = 237910 BitCount = 123 ID = 258
   0.699002 1  103             Rx   d 8 00 00 00 00 00 00 00 00  Length = 241911 BitCount = 125 ID = 259
   0.699251 1  104             Rx   d 8 B2 20 00 00 00 00 00 D2  Length = 239910 BitCount = 124 ID = 260
   0.699499 1  105             Rx   d 8 10 27 00 00 00 00 00 37  Length = 239910 BitCount = 124 ID = 261
   0.699785 1  18E00000x       Rx   d 8 00 07 E7 03 04 12 C5 0F  Length = 277910 BitCount = 143 ID = 417333248x
   0.700071 1  18E00100x       Rx   d 8 07 20 00 01 01 00 50 01  Length = 277910 BitCount = 143 ID = 417333504x
   0.716890 1  12              Rx   d 8 00 02 00 00 02 00 00 00  Length = 239910 BitCount = 124 ID = 18
   0.718791 1  102             Rx   d 8 25 03 00 00 00 00 00 28  Length = 237911 BitCount = 123 ID = 258
   0.719041 1  103             Rx   d 8 00 00 00 00 00 00 00 00  Length = 241910 BitCount = 125 ID = 259
   0.719289 1  104             Rx   d 8 B2 20 00 00 00 00 00 D2  Length = 239910 BitCount = 124 ID = 260
   0.719537 1  105             Rx   d 8 10 27 00 00 00 00 00 37  Length = 239910 BitCount = 124 ID = 261
   0.719819 1  18E00000x       Rx   d 8 00 07 E7 03 18 12 C5 0F  Length = 273910 BitCount = 141 ID = 417333248x
   0.720105 1  18E00100x       Rx   d 8 07 20 00 01 01 00 50 01  Length = 277926 BitCount = 143 ID = 417333504x
   0.721896 1  317             Rx   d 8 50 35 15 32 33 00 00 00  Length = 223910 BitCount = 116 ID = 791
   0.736781 1  303             Rx   d 8 03 03 01 02 00 00 00 00  Length = 239910 BitCount = 124 ID = 771
   0.737025 1  302             Rx   d 8 18 04 1C 00 00 16 02 00  Length = 235910 BitCount = 122 ID = 770
   0.737275 1  304             Rx   d 8 05 00 00 00 00 00 00 00  Length = 241910 BitCount = 125 ID = 772
   0.737885 1  12              Rx   d 8 00 02 00 00 02 00 00 00  Length = 239910 BitCount = 124 ID = 18
   0.738193 1  201             Rx   d 8 00 00 C8 00 00 00 07 CF  Length = 237910 BitCount = 123 ID = 513
   0.738441 1  202             Rx   d 8 08 01 00 00 00 00 00 09  Length = 239911 BitCount = 124 ID = 514
   0.738677 1  203             Rx   d 8 80 B1 CF EC 33 FB C8 3E  Length = 227910 BitCount = 118 ID = 515
   0.739838 1  102             Rx   d 8 25 03 00 00 00 00 00 28  Length = 237926 BitCount = 123 ID = 258
   0.740088 1  103             Rx   d 8 00 00 00 00 00 00 00 00  Length = 241910 BitCount = 125 ID = 259
   0.740336 1  104             Rx   d 8 B2 20 00 00 00 00 00 D2  Length = 239926 BitCount = 124 ID = 260
   0.740584 1  105             Rx   d 8 10 27 00 00 00 00 00 37  Length = 239910 BitCount = 124 ID = 261
   0.740872 1  18E00000x       Rx   d 8 00 07 E7 03 2C 12 C2 0F  Length = 279926 BitCount = 144 ID = 417333248x
   0.741158 1  18E00100x       Rx   d 8 07 20 00 01 01 00 50 01  Length = 277910 BitCount = 143 ID = 417333504x
   0.758890 1  102             Rx   d 8 25 03 00 00 00 00 00 28  Length = 237910 BitCount = 123 ID = 258
   0.759140 1  103             Rx   d 8 00 00 00 00 00 00 00 00  Length = 241926 BitCount = 125 ID = 259
   0.759388 1  104             Rx   d 8 B2 20 00 00 00 00 00 D2  Length = 239911 BitCount = 124 ID = 260
   0.759636 1  105             Rx   d 8 10 27 00 00 00 00 00 37  Length = 239926 BitCount = 124 ID = 261
   0.759922 1  18E00000x       Rx   d 8 00 07 E7 03 40 12 C5 0F  Length = 277910 BitCount = 143 ID = 417333248x
   0.760208 1  18E00100x       Rx   d 8 07 20 00 01 01 00 50 01  Length = 277911 BitCount = 143 ID = 417333504x
   0.765870 1  311             Rx   d 8 02 00 00 00 23 00 CB 02  Length = 229911 BitCount = 119 ID = 785
   0.771878 1  12              Rx   d 8 00 02 00 00 02 00 00 00  Length = 239910 BitCount = 124 ID = 18
   0.775908 1  112             Rx   d 8 00 00 3C 37 00 00 00 00  Length = 235910 BitCount = 122 ID = 274
   0.778940 1  102             Rx   d 8 25 03 00 00 00 00 00 28  Length = 237910 BitCount = 123 ID = 258
   0.779190 1  103             Rx   d 8 00 00 00 00 00 00 00 00  Length = 241911 BitCount = 125 ID = 259
   0.779439 1  104             Rx   d 8 B2 20 00 00 00 00 00 D2  Length = 239910 BitCount = 124 ID = 260
   0.779687 1  105             Rx   d 8 10 27 00 00 00 00 00 37  Length = 239910 BitCount = 124 ID = 261
   0.779973 1  18E00000x       Rx   d 8 00 07 E7 03 52 12 C2 0F  Length = 277911 BitCount = 143 ID = 417333248x
   0.780259 1  18E00100x       Rx   d 8 07 20 00 01 01 00 50 01  Length = 277910 BitCount = 143 ID = 417333504x
   0.785901 1  113             Rx   d 8 01 00 00 00 00 00 00 00  Length = 239926 BitCount = 124 ID = 275
   0.792903 1  12              Rx   d 8 00 02 00 00 02 00 00 00  Length = 239926 BitCount = 124 ID = 18
   0.798983 1  102             Rx   d 8 25 03 00 00 00 00 00 28  Length = 237911 BitCount = 123 ID = 258
   0.799233 1  103             Rx   d 8 00 00 00 00 00 00 00 00  Length = 241910 BitCount = 125 ID = 259
   0.799482 1  104             Rx   d 8 B2 20 00 00 00 00 00 D2  Length = 239910 BitCount = 124 ID = 260
   0.799730 1  105             Rx   d 8 10 27 00 00 00 00 00 37  Length = 239911 BitCount = 124 ID = 261
   0.800014 1  18E00000x       Rx   d 8 00 07 E7 03 61 12 C2 0F  Length = 275910 BitCount = 142 ID = 417333248x
   0.800300 1  18E00100x       Rx   d 8 07 20 00 01 01 00 50 01  Length = 277910 BitCount = 143 ID = 417333504x
   0.813892 1  12              Rx   d 8 00 02 00 00 02 00 00 00  Length = 239911 BitCount = 124 ID = 18
   0.819030 1  102             Rx   d 8 25 03 00 00 00 00 00 28  Length = 237910 BitCount = 123 ID = 258
   0.819280 1  103             Rx   d 8 00 00 00 00 00 00 00 00  Length = 241910 BitCount = 125 ID = 259
   0.819528 1  104             Rx   d 8 B2 20 00 00 00 00 00 D2  Length = 239911 BitCount = 124 ID = 260
   0.819777 1  105             Rx   d 8 10 27 00 00 00 00 00 37  Length = 239910 BitCount = 124 ID = 261
   0.820061 1  18E00000x       Rx   d 8 00 07 E7 03 7D 12 C5 0F  Length = 275910 BitCount = 142 ID = 417333248x
   0.820347 1  18E00100x       Rx   d 8 07 20 00 01 01 00 50 01  Length = 277926 BitCount = 143 ID = 417333504x
   0.834892 1  12              Rx   d 8 00 02 00 00 02 00 00 00  Length = 239926 BitCount = 124 ID = 18
   0.838393 1  204             Rx   d 8 E0 38 37 38 38 FF FF FF  Length = 231911 BitCount = 120 ID = 516
   0.838633 1  205             Rx   d 8 C6 0F 12 B0 0F 05 00 00  Length = 231926 BitCount = 120 ID = 517
   0.838879 1  206             Rx   d 8 38 01 37 02 00 00 00 00  Length = 237910 BitCount = 123 ID = 518
   0.840897 1  31F             Rx   d 8 00 00 00 00 00 00 00 00  Length = 243911 BitCount = 126 ID = 799
   0.843991 1  102             Rx   d 8 25 03 00 00 00 00 00 28  Length = 237910 BitCount = 123 ID = 258
   0.844241 1  103             Rx   d 8 00 00 00 00 00 00 00 00  Length = 241910 BitCount = 125 ID = 259
   0.844490 1  104             Rx   d 8 B2 20 00 00 00 00 00 D2  Length = 239911 BitCount = 124 ID = 260
   0.844738 1  105             Rx   d 8 10 27 00 00 00 00 00 37  Length = 239910 BitCount = 124 ID = 261
   0.845020 1  18E00000x       Rx   d 8 00 07 E7 03 8E 12 CF 0F  Length = 273910 BitCount = 141 ID = 417333248x
   0.845306 1  18E00100x       Rx   d 8 07 20 00 01 01 00 50 01  Length = 277911 BitCount = 143 ID = 417333504x
   0.855890 1  12              Rx   d 8 00 02 00 00 02 00 00 00  Length = 239910 BitCount = 124 ID = 18
   0.859146 1  102             Rx   d 8 25 03 00 00 00 00 00 28  Length = 237910 BitCount = 123 ID = 258
   0.859396 1  103             Rx   d 8 00 00 00 00 00 00 00 00  Length = 241926 BitCount = 125 ID = 259
   0.859644 1  104             Rx   d 8 B2 20 00 00 00 00 00 D2  Length = 239910 BitCount = 124 ID = 260
   0.859892 1  105             Rx   d 8 10 27 00 00 00 00 00 37  Length = 239926 BitCount = 124 ID = 261
   0.860173 1  18E00000x       Rx   d 8 00 07 E7 03 A5 12 C5 0F  Length = 271911 BitCount = 140 ID = 417333248x
   0.860459 1  18E00100x       Rx   d 8 07 20 00 01 01 00 50 01  Length = 277910 BitCount = 143 ID = 417333504x
   0.879168 1  102             Rx   d 8 25 03 00 00 00 00 00 28  Length = 237926 BitCount = 123 ID = 258
   0.879418 1  103             Rx   d 8 00 00 00 00 00 00 00 00  Length = 241910 BitCount = 125 ID = 259
   0.879666 1  104             Rx   d 8 B2 20 00 00 00 00 00 D2  Length = 239926 BitCount = 124 ID = 260
   0.879914 1  105             Rx   d 8 10 27 00 00 00 00 00 37  Length = 239911 BitCount = 124 ID = 261
   0.880154 1  311             Rx   d 8 02 00 00 00 22 00 CB 02  Length = 231911 BitCount = 120 ID = 785
   0.880435 1  18E00000x       Rx   d 8 00 07 E7 03 B9 12 C5 0F  Length = 271910 BitCount = 140 ID = 417333248x
   0.880721 1  18E00100x       Rx   d 8 07 20 00 01 01 00 50 01  Length = 277911 BitCount = 143 ID = 417333504x
   0.889891 1  12              Rx   d 8 00 02 00 00 02 00 00 00  Length = 239910 BitCount = 124 ID = 18
   0.890891 1  112             Rx   d 8 00 00 3C 37 00 00 00 00  Length = 235911 BitCount = 122 ID = 274
   0.899229 1  102             Rx   d 8 25 03 00 00 00 00 00 28  Length = 237910 BitCount = 123 ID = 258
   0.899479 1  103             Rx   d 8 00 00 00 00 00 00 00 00  Length = 241910 BitCount = 125 ID = 259
   0.899728 1  104             Rx   d 8 B2 20 00 00 00 00 00 D2  Length = 239911 BitCount = 124 ID = 260
   0.899976 1  105             Rx   d 8 10 27 00 00 00 00 00 37  Length = 239926 BitCount = 124 ID = 261
   0.900224 1  113             Rx   d 8 01 00 00 00 00 00 00 00  Length = 239910 BitCount = 124 ID = 275
   0.900506 1  18E00000x       Rx   d 8 00 07 E7 03 D0 12 C5 0F  Length = 273911 BitCount = 141 ID = 417333248x
   0.900792 1  18E00100x       Rx   d 8 07 20 00 01 01 00 50 01  Length = 277910 BitCount = 143 ID = 417333504x
   0.901032 1  315             Rx   d 8 05 05 03 03 01 00 03 03  Length = 231910 BitCount = 120 ID = 789
   0.910888 1  12              Rx   d 8 00 02 00 00 02 00 00 00  Length = 239910 BitCount = 124 ID = 18
   0.919287 1  102             Rx   d 8 25 03 00 00 00 00 00 28  Length = 237910 BitCount = 123 ID = 258
   0.919537 1  103             Rx   d 8 00 00 00 00 00 00 00 00  Length = 241911 BitCount = 125 ID = 259
   0.919785 1  104             Rx   d 8 B2 20 00 00 00 00 00 D2  Length = 239910 BitCount = 124 ID = 260
   0.920033 1  105             Rx   d 8 10 27 00 00 00 00 00 37  Length = 239910 BitCount = 124 ID = 261
   0.920321 1  18E00000x       Rx   d 8 00 07 E7 03 E4 12 C2 0F  Length = 279911 BitCount = 144 ID = 417333248x
   0.920607 1  18E00100x       Rx   d 8 07 20 00 01 01 00 50 01  Length = 277910 BitCount = 143 ID = 417333504x
   0.931889 1  12              Rx   d 8 00 02 00 00 02 00 00 00  Length = 239926 BitCount = 124 ID = 18
   0.935273 1  18E00001x       Rx   d 8 60 00 2C 04 F3 01 2C 04  Length = 271911 BitCount = 140 ID = 417333249x
   0.936270 1  305             Rx   d 8 00 33 01 22 08 02 02 00  Length = 233910 BitCount = 121 ID = 773
   0.936508 1  306             Rx   d 8 00 33 01 22 08 03 01 01  Length = 229910 BitCount = 119 ID = 774
   0.936798 1  18E0000Bx       Rx   d 8 00 00 00 00 00 00 01 00  Length = 281910 BitCount = 145 ID = 417333259x
   0.937262 1  303             Rx   d 8 03 03 01 02 00 00 00 00  Length = 239911 BitCount = 124 ID = 771
   0.937506 1  302             Rx   d 8 18 04 1C 00 00 16 02 00  Length = 235910 BitCount = 122 ID = 770
   0.937740 1  304             Rx   d 8 01 30 33 4E 4D 45 30 38  Length = 225910 BitCount = 117 ID = 772
   0.938650 1  201             Rx   d 8 00 00 C8 00 00 00 07 CF  Length = 237910 BitCount = 123 ID = 513
   0.938899 1  202             Rx   d 8 08 01 00 00 00 00 00 09  Length = 239926 BitCount = 124 ID = 514
   0.939137 1  203             Rx   d 8 81 B0 CF F0 43 FC 08 3F  Length = 229910 BitCount = 119 ID = 515
   0.941101 1  102             Rx   d 8 25 03 00 00 00 00 00 28  Length = 237910 BitCount = 123 ID = 258
   0.941351 1  103             Rx   d 8 00 00 00 00 00 00 00 00  Length = 241926 BitCount = 125 ID = 259
   0.941599 1  104             Rx   d 8 B2 20 00 00 00 00 00 D2  Length = 239910 BitCount = 124 ID = 260
   0.941847 1  105             Rx   d 8 10 27 00 00 00 00 00 37  Length = 239926 BitCount = 124 ID = 261
   0.942137 1  18E00000x       Rx   d 8 00 07 E7 03 F8 12 C2 0F  Length = 281911 BitCount = 145 ID = 417333248x
   0.942424 1  18E00100x       Rx   d 8 07 20 00 01 01 00 50 01  Length = 277926 BitCount = 143 ID = 417333504x
   0.947913 1  318             Rx   d 8 03 00 00 00 00 00 00 00  Length = 239911 BitCount = 124 ID = 792
   0.952911 1  12              Rx   d 8 00 02 00 00 02 00 00 00  Length = 239911 BitCount = 124 ID = 18
   0.959372 1  102             Rx   d 8 25 03 00 00 00 00 00 28  Length = 237910 BitCount = 123 ID = 258
   0.959622 1  103             Rx   d 8 00 00 00 00 00 00 00 00  Length = 241926 BitCount = 125 ID = 259
   0.959870 1  104             Rx   d 8 B2 20 00 00 00 00 00 D2  Length = 239911 BitCount = 124 ID = 260
   0.960118 1  105             Rx   d 8 10 27 00 00 00 00 00 37  Length = 239926 BitCount = 124 ID = 261
   0.960399 1  18E00000x       Rx   d 8 00 07 E7 03 0F 13 D1 0F  Length = 271910 BitCount = 140 ID = 417333248x
   0.960685 1  18E00100x       Rx   d 8 07 20 00 01 01 00 50 01  Length = 277926 BitCount = 143 ID = 417333504x
   0.973884 1  12              Rx   d 8 00 02 00 00 02 00 00 00  Length = 239926 BitCount = 124 ID = 18
   0.979431 1  102             Rx   d 8 25 03 00 00 00 00 00 28  Length = 237926 BitCount = 123 ID = 258
   0.979681 1  103             Rx   d 8 00 00 00 00 00 00 00 00  Length = 241910 BitCount = 125 ID = 259
   0.979929 1  104             Rx   d 8 B2 20 00 00 00 00 00 D2  Length = 239926 BitCount = 124 ID = 260
   0.980177 1  105             Rx   d 8 10 27 00 00 00 00 00 37  Length = 239910 BitCount = 124 ID = 261
   0.980457 1  18E00000x       Rx   d 8 00 07 E7 03 23 13 C5 0F  Length = 271926 BitCount = 140 ID = 417333248x
   0.980743 1  18E00100x       Rx   d 8 07 20 00 01 01 00 50 01  Length = 277911 BitCount = 143 ID = 417333504x
   0.994657 1  311             Rx   d 8 02 00 00 00 20 00 CB 02  Length = 233910 BitCount = 121 ID = 785
   0.999452 1  102             Rx   d 8 25 03 00 00 00 00 00 28  Length = 237910 BitCount = 123 ID = 258
   0.999702 1  103             Rx   d 8 00 00 00 00 00 00 00 00  Length = 241926 BitCount = 125 ID = 259
   0.999950 1  104             Rx   d 8 B2 20 00 00 00 00 00 D2  Length = 239910 BitCount = 124 ID = 260
   1.000198 1  105             Rx   d 8 10 27 00 00 00 00 00 37  Length = 239926 BitCount = 124 ID = 261
   1.000482 1  18E00000x       Rx   d 8 00 07 E7 03 39 13 C5 0F  Length = 275911 BitCount = 142 ID = 417333248x
   1.000768 1  18E00100x       Rx   d 8 07 20 00 01 01 00 50 01  Length = 277910 BitCount = 143 ID = 417333504x
   1.003890 1  112             Rx   d 8 00 00 3C 37 00 00 00 00  Length = 235910 BitCount = 122 ID = 274
   1.007876 1  12              Rx   d 8 00 02 00 00 02 00 00 00  Length = 239910 BitCount = 124 ID = 18
   1.010265 1  Statistic: D 327 R 0 XD 103 XR 0 E 0 O 0 B 10.91%
   1.010265 CAN 1 Status:chip status error active
   1.010265 2  Statistic: D 0 R 0 XD 0 XR 0 E 0 O 0 B 0.00%
   1.010265 CAN 2 Status:chip status error active
   1.013898 1  113             Rx   d 8 01 00 00 00 00 00 00 00  Length = 239926 BitCount = 124 ID = 275
   1.019503 1  102             Rx   d 8 25 03 00 00 00 00 00 28  Length = 237910 BitCount = 123 ID = 258
   1.019753 1  103             Rx   d 8 00 00 00 00 00 00 00 00  Length = 241910 BitCount = 125 ID = 259
   1.020001 1  104             Rx   d 8 B2 20 00 00 00 00 00 D2  Length = 239910 BitCount = 124 ID = 260
   1.020249 1  105             Rx   d 8 10 27 00 00 00 00 00 37  Length = 239911 BitCount = 124 ID = 261
   1.020533 1  18E00000x       Rx   d 8 00 07 E7 03 53 13 C2 0F  Length = 275910 BitCount = 142 ID = 417333248x
   1.020819 1  18E00100x       Rx   d 8 07 20 00 01 01 00 50 01  Length = 277910 BitCount = 143 ID = 417333504x
   1.028887 1  12              Rx   d 8 00 02 00 00 02 00 00 00  Length = 239910 BitCount = 124 ID = 18
   1.038876 1  204             Rx   d 8 E1 FF 39 38 39 3B 40 FF  Length = 225911 BitCount = 117 ID = 516
   1.039116 1  205             Rx   d 8 C6 0F 12 B0 0F 05 00 00  Length = 231910 BitCount = 120 ID = 517
   1.039362 1  206             Rx   d 8 38 01 37 02 00 00 00 00  Length = 237910 BitCount = 123 ID = 518
   1.044454 1  102             Rx   d 8 25 03 00 00 00 00 00 28  Length = 237910 BitCount = 123 ID = 258
   1.044705 1  103             Rx   d 8 00 00 00 00 00 00 00 00  Length = 241911 BitCount = 125 ID = 259
   1.044953 1  104             Rx   d 8 B2 20 00 00 00 00 00 D2  Length = 239910 BitCount = 124 ID = 260
   1.045201 1  105             Rx   d 8 10 27 00 00 00 00 00 37  Length = 239910 BitCount = 124 ID = 261
   1.045485 1  18E00000x       Rx   d 8 00 07 E7 03 67 13 C5 0F  Length = 275910 BitCount = 142 ID = 417333248x
   1.045771 1  18E00100x       Rx   d 8 07 20 00 01 01 00 50 01  Length = 277910 BitCount = 143 ID = 417333504x
   1.049895 1  12              Rx   d 8 00 02 00 00 02 00 00 00  Length = 239910 BitCount = 124 ID = 18
   1.059604 1  102             Rx   d 8 25 03 00 00 00 00 00 28  Length = 237910 BitCount = 123 ID = 258
   1.059854 1  103             Rx   d 8 00 00 00 00 00 00 00 00  Length = 241911 BitCount = 125 ID = 259
   1.060102 1  104             Rx   d 8 B2 20 00 00 00 00 00 D2  Length = 239910 BitCount = 124 ID = 260
   1.060350 1  105             Rx   d 8 10 27 00 00 00 00 00 37  Length = 239910 BitCount = 124 ID = 261
   1.060636 1  18E00000x       Rx   d 8 00 07 E7 03 82 13 C2 0F  Length = 277911 BitCount = 143 ID = 417333248x
   1.060923 1  18E00100x       Rx   d 8 07 20 00 01 01 00 50 01  Length = 277926 BitCount = 143 ID = 417333504x
   1.070888 1  12              Rx   d 8 00 02 00 00 02 00 00 00  Length = 239910 BitCount = 124 ID = 18
   1.079653 1  102             Rx   d 8 25 03 00 00 00 00 00 28  Length = 237926 BitCount = 123 ID = 258
   1.079903 1  103             Rx   d 8 00 00 00 00 00 00 00 00  Length = 241910 BitCount = 125 ID = 259
   1.080151 1  104             Rx   d 8 B2 20 00 00 00 00 00 D2  Length = 239926 BitCount = 124 ID = 260
   1.080399 1  105             Rx   d 8 10 27 00 00 00 00 00 37  Length = 239911 BitCount = 124 ID = 261
   1.080684 1  18E00000x       Rx   d 8 00 07 E7 03 99 13 C2 0F  Length = 275926 BitCount = 142 ID = 417333248x
   1.080970 1  18E00100x       Rx   d 8 07 20 00 01 01 00 50 01  Length = 277910 BitCount = 143 ID = 417333504x
   1.091885 1  12              Rx   d 8 00 02 00 00 02 00 00 00  Length = 239911 BitCount = 124 ID = 18
   1.094877 1  311             Rx   d 8 02 00 00 00 1F 00 CB 02  Length = 231910 BitCount = 120 ID = 785
   1.099688 1  102             Rx   d 8 25 03 00 00 00 00 00 28  Length = 237910 BitCount = 123 ID = 258
   1.099938 1  103             Rx   d 8 00 00 00 00 00 00 00 00  Length = 241926 BitCount = 125 ID = 259
   1.100186 1  104             Rx   d 8 B2 20 00 00 00 00 00 D2  Length = 239911 BitCount = 124 ID = 260
   1.100434 1  105             Rx   d 8 10 27 00 00 00 00 00 37  Length = 239926 BitCount = 124 ID = 261
   1.100716 1  18E00000x       Rx   d 8 00 07 E7 03 9B 13 C5 0F  Length = 273910 BitCount = 141 ID = 417333248x
   1.101003 1  18E00100x       Rx   d 8 07 20 00 01 01 00 50 01  Length = 277926 BitCount = 143 ID = 417333504x
   1.117886 1  112             Rx   d 8 00 00 3C 37 00 00 00 00  Length = 235910 BitCount = 122 ID = 274
   1.119732 1  102             Rx   d 8 25 03 00 00 00 00 00 28  Length = 237926 BitCount = 123 ID = 258
   1.119982 1  103             Rx   d 8 00 00 00 00 00 00 00 00  Length = 241910 BitCount = 125 ID = 259
   1.120231 1  104             Rx   d 8 B2 20 00 00 00 00 00 D2  Length = 239926 BitCount = 124 ID = 260
   1.120479 1  105             Rx   d 8 10 27 00 00 00 00 00 37  Length = 239910 BitCount = 124 ID = 261
   1.120765 1  18E00000x       Rx   d 8 00 07 E7 03 C4 13 C5 0F  Length = 277926 BitCount = 143 ID = 417333248x
   1.121051 1  18E00100x       Rx   d 8 07 20 00 01 01 00 50 01  Length = 277911 BitCount = 143 ID = 417333504x
   1.125893 1  12              Rx   d 8 00 02 00 00 02 00 00 00  Length = 239911 BitCount = 124 ID = 18
   1.127887 1  315             Rx   d 8 05 05 03 03 01 00 03 03  Length = 231910 BitCount = 120 ID = 789
   1.128891 1  113             Rx   d 8 01 00 00 00 00 00 00 00  Length = 239926 BitCount = 124 ID = 275
   1.137744 1  303             Rx   d 8 03 03 01 02 00 00 00 00  Length = 239910 BitCount = 124 ID = 771
   1.137988 1  302             Rx   d 8 18 04 1C 00 00 16 03 00  Length = 235926 BitCount = 122 ID = 770
   1.138220 1  304             Rx   d 8 02 54 51 4C 30 30 31 47  Length = 223910 BitCount = 116 ID = 772
   1.139128 1  201             Rx   d 8 00 00 C8 00 00 00 07 CF  Length = 237910 BitCount = 123 ID = 513
   1.139376 1  202             Rx   d 8 08 01 00 00 00 00 00 09  Length = 239910 BitCount = 124 ID = 514
   1.139614 1  203             Rx   d 8 82 C4 4F F1 03 FB E4 3E  Length = 229911 BitCount = 119 ID = 515
   1.142209 1  102             Rx   d 8 25 03 00 00 00 00 00 28  Length = 237910 BitCount = 123 ID = 258
   1.142459 1  103             Rx   d 8 00 00 00 00 00 00 00 00  Length = 241926 BitCount = 125 ID = 259
   1.142707 1  104             Rx   d 8 B2 20 00 00 00 00 00 D2  Length = 239911 BitCount = 124 ID = 260
   1.142955 1  105             Rx   d 8 10 27 00 00 00 00 00 37  Length = 239926 BitCount = 124 ID = 261
   1.143237 1  18E00000x       Rx   d 8 00 07 E7 03 DA 13 C5 0F  Length = 273910 BitCount = 141 ID = 417333248x
   1.143523 1  18E00100x       Rx   d 8 07 20 00 01 01 00 50 01  Length = 277911 BitCount = 143 ID = 417333504x
   1.146884 1  12              Rx   d 8 00 02 00 00 02 00 00 00  Length = 239910 BitCount = 124 ID = 18
   1.159852 1  102             Rx   d 8 25 03 00 00 00 00 00 28  Length = 237910 BitCount = 123 ID = 258
   1.160103 1  103             Rx   d 8 00 00 00 00 00 00 00 00  Length = 241910 BitCount = 125 ID = 259
   1.160351 1  104             Rx   d 8 B2 20 00 00 00 00 00 D2  Length = 239910 BitCount = 124 ID = 260
   1.160599 1  105             Rx   d 8 10 27 00 00 00 00 00 37  Length = 239911 BitCount = 124 ID = 261
   1.160887 1  18E00000x       Rx   d 8 00 07 E7 03 F3 13 C2 0F  Length = 279910 BitCount = 144 ID = 417333248x
   1.161173 1  18E00100x       Rx   d 8 07 20 00 01 01 00 50 01  Length = 277910 BitCount = 143 ID = 417333504x
   1.167883 1  12              Rx   d 8 00 02 00 00 02 00 00 00  Length = 239910 BitCount = 124 ID = 18
   1.179900 1  102             Rx   d 8 25 03 00 00 00 00 00 28  Length = 237910 BitCount = 123 ID = 258
   1.180150 1  103             Rx   d 8 00 00 00 00 00 00 00 00  Length = 241910 BitCount = 125 ID = 259
   1.180398 1  104             Rx   d 8 B2 20 00 00 00 00 00 D2  Length = 239911 BitCount = 124 ID = 260
   1.180646 1  105             Rx   d 8 10 27 00 00 00 00 00 37  Length = 239910 BitCount = 124 ID = 261
   1.180928 1  18E00000x       Rx   d 8 00 07 E7 03 0A 14 C5 0F  Length = 273910 BitCount = 141 ID = 417333248x
   1.181215 1  18E00100x       Rx   d 8 07 20 00 01 01 00 50 01  Length = 277911 BitCount = 143 ID = 417333504x
   1.188882 1  12              Rx   d 8 00 02 00 00 02 00 00 00  Length = 239910 BitCount = 124 ID = 18
   1.199935 1  102             Rx   d 8 25 03 00 00 00 00 00 28  Length = 237910 BitCount = 123 ID = 258
   1.200185 1  103             Rx   d 8 00 00 00 00 00 00 00 00  Length = 241926 BitCount = 125 ID = 259
   1.200433 1  104             Rx   d 8 B2 20 00 00 00 00 00 D2  Length = 239910 BitCount = 124 ID = 260
   1.200682 1  105             Rx   d 8 10 27 00 00 00 00 00 37  Length = 239926 BitCount = 124 ID = 261
   1.200966 1  18E00000x       Rx   d 8 00 07 E7 03 21 14 C2 0F  Length = 275911 BitCount = 142 ID = 417333248x
   1.201252 1  18E00100x       Rx   d 8 07 20 00 01 01 00 50 01  Length = 277926 BitCount = 143 ID = 417333504x
   1.208874 1  311             Rx   d 8 02 00 00 00 1E 00 CB 02  Length = 229910 BitCount = 119 ID = 785
   1.209906 1  12              Rx   d 8 00 02 00 00 02 00 00 00  Length = 239910 BitCount = 124 ID = 18
   1.219971 1  102             Rx   d 8 25 03 00 00 00 00 00 28  Length = 237926 BitCount = 123 ID = 258
   1.220221 1  103             Rx   d 8 00 00 00 00 00 00 00 00  Length = 241910 BitCount = 125 ID = 259
   1.220469 1  104             Rx   d 8 B2 20 00 00 00 00 00 D2  Length = 239926 BitCount = 124 ID = 260
   1.220717 1  105             Rx   d 8 10 27 00 00 00 00 00 37  Length = 239911 BitCount = 124 ID = 261
   1.221001 1  18E00000x       Rx   d 8 00 07 E7 03 3A 14 C2 0F  Length = 275926 BitCount = 142 ID = 417333248x
   1.221287 1  18E00100x       Rx   d 8 07 20 00 01 01 00 50 01  Length = 277910 BitCount = 143 ID = 417333504x
   1.231893 1  112             Rx   d 8 00 00 3C 37 00 00 00 00  Length = 235910 BitCount = 122 ID = 274
   1.239382 1  204             Rx   d 8 22 FF FF FF FF FF FF FF  Length = 241910 BitCount = 125 ID = 516
   1.239622 1  205             Rx   d 8 C6 0F 12 B0 0F 05 00 00  Length = 231911 BitCount = 120 ID = 517
   1.239868 1  206             Rx   d 8 38 01 37 02 00 00 00 00  Length = 237910 BitCount = 123 ID = 518
   1.241900 1  113             Rx   d 8 01 00 00 00 00 00 00 00  Length = 239910 BitCount = 124 ID = 275
   1.243874 1  12              Rx   d 8 00 02 00 00 02 00 00 00  Length = 239926 BitCount = 124 ID = 18
   1.244912 1  102             Rx   d 8 25 03 00 00 00 00 00 28  Length = 237910 BitCount = 123 ID = 258
   1.245162 1  103             Rx   d 8 00 00 00 00 00 00 00 00  Length = 241926 BitCount = 125 ID = 259
   1.245410 1  104             Rx   d 8 B2 20 00 00 00 00 00 D2  Length = 239910 BitCount = 124 ID = 260
   1.245659 1  105             Rx   d 8 10 27 00 00 00 00 00 37  Length = 239926 BitCount = 124 ID = 261
   1.245941 1  18E00000x       Rx   d 8 00 07 E7 03 51 14 C5 0F  Length = 273910 BitCount = 141 ID = 417333248x
   1.246227 1  18E00100x       Rx   d 8 07 20 00 01 01 00 50 01  Length = 277926 BitCount = 143 ID = 417333504x
   1.260096 1  102             Rx   d 8 25 03 00 00 00 00 00 28  Length = 237911 BitCount = 123 ID = 258
   1.260346 1  103             Rx   d 8 00 00 00 00 00 00 00 00  Length = 241910 BitCount = 125 ID = 259
   1.260594 1  104             Rx   d 8 B2 20 00 00 00 00 00 D2  Length = 239910 BitCount = 124 ID = 260
   1.260842 1  105             Rx   d 8 10 27 00 00 00 00 00 37  Length = 239910 BitCount = 124 ID = 261
   1.261126 1  18E00000x       Rx   d 8 00 07 E7 03 67 14 C9 0F  Length = 275910 BitCount = 142 ID = 417333248x
   1.261413 1  18E00100x       Rx   d 8 07 20 00 01 01 00 50 01  Length = 277911 BitCount = 143 ID = 417333504x
   1.264870 1  12              Rx   d 8 00 02 00 00 02 00 00 00  Length = 239911 BitCount = 124 ID = 18
   1.280128 1  102             Rx   d 8 25 03 00 00 00 00 00 28  Length = 237910 BitCount = 123 ID = 258
   1.280378 1  103             Rx   d 8 00 00 00 00 00 00 00 00  Length = 241910 BitCount = 125 ID = 259
   1.280626 1  104             Rx   d 8 B2 20 00 00 00 00 00 D2  Length = 239910 BitCount = 124 ID = 260
   1.280874 1  105             Rx   d 8 10 27 00 00 00 00 00 37  Length = 239910 BitCount = 124 ID = 261
   1.281160 1  18E00000x       Rx   d 8 00 07 E7 03 80 14 C5 0F  Length = 277911 BitCount = 143 ID = 417333248x
   1.281446 1  18E00100x       Rx   d 8 07 20 00 01 01 00 50 01  Length = 277910 BitCount = 143 ID = 417333504x
   1.285884 1  12              Rx   d 8 00 02 00 00 02 00 00 00  Length = 239910 BitCount = 124 ID = 18
   1.287870 1  317             Rx   d 8 50 35 15 32 33 00 00 00  Length = 223911 BitCount = 116 ID = 791
   1.300177 1  102             Rx   d 8 25 03 00 00 00 00 00 28  Length = 237910 BitCount = 123 ID = 258
   1.300427 1  103             Rx   d 8 00 00 00 00 00 00 00 00  Length = 241910 BitCount = 125 ID = 259
   1.300675 1  104             Rx   d 8 B2 20 00 00 00 00 00 D2  Length = 239910 BitCount = 124 ID = 260
   1.300924 1  105             Rx   d 8 10 27 00 00 00 00 00 37  Length = 239911 BitCount = 124 ID = 261
   1.301206 1  18E00000x       Rx   d 8 00 07 E7 03 97 14 C5 0F  Length = 273910 BitCount = 141 ID = 417333248x
   1.301492 1  18E00100x       Rx   d 8 07 20 00 01 01 00 50 01  Length = 277926 BitCount = 143 ID = 417333504x
   1.306882 1  12              Rx   d 8 00 02 00 00 02 00 00 00  Length = 239910 BitCount = 124 ID = 18
   1.320221 1  102             Rx   d 8 25 03 00 00 00 00 00 28  Length = 237926 BitCount = 123 ID = 258
   1.320471 1  103             Rx   d 8 00 00 00 00 00 00 00 00  Length = 241910 BitCount = 125 ID = 259
   1.320719 1  104             Rx   d 8 B2 20 00 00 00 00 00 D2  Length = 239926 BitCount = 124 ID = 260
   1.320967 1  105             Rx   d 8 10 27 00 00 00 00 00 37  Length = 239910 BitCount = 124 ID = 261
   1.321253 1  18E00000x       Rx   d 8 00 07 E7 03 B0 14 C2 0F  Length = 277926 BitCount = 143 ID = 417333248x
   1.321540 1  18E00100x       Rx   d 8 07 20 00 01 01 00 50 01  Length = 277910 BitCount = 143 ID = 417333504x
   1.322872 1  311             Rx   d 8 02 00 00 00 1D 00 CB 02  Length = 229910 BitCount = 119 ID = 785
   1.338229 1  303             Rx   d 8 03 03 01 02 00 00 00 00  Length = 239910 BitCount = 124 ID = 771
   1.338473 1  302             Rx   d 8 18 04 1C 00 00 16 03 00  Length = 235911 BitCount = 122 ID = 770
   1.338709 1  304             Rx   d 8 03 44 35 4E 30 30 30 30  Length = 227910 BitCount = 118 ID = 772
   1.339623 1  201             Rx   d 8 00 00 C8 00 00 00 07 CF  Length = 237910 BitCount = 123 ID = 513
   1.339871 1  202             Rx   d 8 08 01 00 00 00 00 00 09  Length = 239910 BitCount = 124 ID = 514
   1.340103 1  203             Rx   d 8 83 B6 CF EC 43 FB 14 3F  Length = 223910 BitCount = 116 ID = 515
   1.340724 1  102             Rx   d 8 25 03 00 00 00 00 00 28  Length = 237910 BitCount = 123 ID = 258
   1.340972 1  12              Rx   d 8 00 02 00 00 02 00 00 00  Length = 239926 BitCount = 124 ID = 18
   1.341222 1  103             Rx   d 8 00 00 00 00 00 00 00 00  Length = 241911 BitCount = 125 ID = 259
   1.341470 1  104             Rx   d 8 B2 20 00 00 00 00 00 D2  Length = 239926 BitCount = 124 ID = 260
   1.341718 1  105             Rx   d 8 10 27 00 00 00 00 00 37  Length = 239910 BitCount = 124 ID = 261
   1.342000 1  18E00000x       Rx   d 8 00 07 E7 03 C9 14 C5 0F  Length = 273926 BitCount = 141 ID = 417333248x
   1.342286 1  18E00100x       Rx   d 8 07 20 00 01 01 00 50 01  Length = 277911 BitCount = 143 ID = 417333504x
   1.345878 1  112             Rx   d 8 00 00 3C 37 00 00 00 00  Length = 235910 BitCount = 122 ID = 274
   1.354874 1  315             Rx   d 8 05 05 03 03 01 00 03 03  Length = 231910 BitCount = 120 ID = 789
   1.355886 1  113             Rx   d 8 01 00 00 00 00 00 00 00  Length = 239910 BitCount = 124 ID = 275
   1.360323 1  102             Rx   d 8 25 03 00 00 00 00 00 28  Length = 237910 BitCount = 123 ID = 258
   1.360573 1  103             Rx   d 8 00 00 00 00 00 00 00 00  Length = 241910 BitCount = 125 ID = 259
   1.360821 1  104             Rx   d 8 B2 20 00 00 00 00 00 D2  Length = 239911 BitCount = 124 ID = 260
   1.361069 1  105             Rx   d 8 10 27 00 00 00 00 00 37  Length = 239910 BitCount = 124 ID = 261
   1.361355 1  18E00000x       Rx   d 8 00 07 E7 03 E2 14 C2 0F  Length = 277910 BitCount = 143 ID = 417333248x
   1.361641 1  18E00100x       Rx   d 8 07 20 00 01 01 00 50 01  Length = 277910 BitCount = 143 ID = 417333504x
   1.361891 1  12              Rx   d 8 00 02 00 00 02 00 00 00  Length = 239910 BitCount = 124 ID = 18
   1.380371 1  102             Rx   d 8 25 03 00 00 00 00 00 28  Length = 237910 BitCount = 123 ID = 258
   1.380621 1  103             Rx   d 8 00 00 00 00 00 00 00 00  Length = 241911 BitCount = 125 ID = 259
   1.380869 1  104             Rx   d 8 B2 20 00 00 00 00 00 D2  Length = 239910 BitCount = 124 ID = 260
   1.381117 1  105             Rx   d 8 10 27 00 00 00 00 00 37  Length = 239910 BitCount = 124 ID = 261
   1.381405 1  18E00000x       Rx   d 8 00 07 E7 03 FC 14 C2 0F  Length = 279910 BitCount = 144 ID = 417333248x
   1.381691 1  18E00100x       Rx   d 8 07 20 00 01 01 00 50 01  Length = 277910 BitCount = 143 ID = 417333504x
   1.382881 1  12              Rx   d 8 00 02 00 00 02 00 00 00  Length = 239926 BitCount = 124 ID = 18
   1.400423 1  102             Rx   d 8 25 03 00 00 00 00 00 28  Length = 237911 BitCount = 123 ID = 258
   1.400673 1  103             Rx   d 8 00 00 00 00 00 00 00 00  Length = 241910 BitCount = 125 ID = 259
   1.400921 1  104             Rx   d 8 B2 20 00 00 00 00 00 D2  Length = 239910 BitCount = 124 ID = 260
   1.401169 1  105             Rx   d 8 10 27 00 00 00 00 00 37  Length = 239910 BitCount = 124 ID = 261
   1.401451 1  18E00000x       Rx   d 8 00 07 E7 03 15 15 C7 0F  Length = 273910 BitCount = 141 ID = 417333248x
   1.401737 1  18E00100x       Rx   d 8 07 20 00 01 01 00 50 01  Length = 277911 BitCount = 143 ID = 417333504x
   1.403877 1  12              Rx   d 8 00 02 00 00 02 00 00 00  Length = 239911 BitCount = 124 ID = 18
   1.420477 1  102             Rx   d 8 25 03 00 00 00 00 00 28  Length = 237910 BitCount = 123 ID = 258
   1.420727 1  103             Rx   d 8 00 00 00 00 00 00 00 00  Length = 241910 BitCount = 125 ID = 259
   1.420975 1  104             Rx   d 8 B2 20 00 00 00 00 00 D2  Length = 239910 BitCount = 124 ID = 260
   1.421223 1  105             Rx   d 8 10 27 00 00 00 00 00 37  Length = 239910 BitCount = 124 ID = 261
   1.421503 1  18E00000x       Rx   d 8 00 07 E7 03 2E 15 C9 0F  Length = 271926 BitCount = 140 ID = 417333248x
   1.421789 1  18E00100x       Rx   d 8 07 20 00 01 01 00 50 01  Length = 277910 BitCount = 143 ID = 417333504x
   1.424875 1  12              Rx   d 8 00 02 00 00 02 00 00 00  Length = 239910 BitCount = 124 ID = 18
   1.436867 1  311             Rx   d 8 02 00 00 00 1B 00 CB 02  Length = 229910 BitCount = 119 ID = 785
   1.437475 1  305             Rx   d 8 00 33 01 22 08 02 02 00  Length = 233910 BitCount = 121 ID = 773
   1.437713 1  306             Rx   d 8 00 33 01 22 08 03 01 01  Length = 229910 BitCount = 119 ID = 774
   1.438003 1  18E0000Bx       Rx   d 8 00 00 00 00 00 00 01 00  Length = 281911 BitCount = 145 ID = 417333259x
   1.439838 1  204             Rx   d 8 E0 38 37 38 38 FF FF FF  Length = 231926 BitCount = 120 ID = 516
   1.440078 1  205             Rx   d 8 C6 0F 12 B0 0F 05 00 00  Length = 231910 BitCount = 120 ID = 517
   1.440324 1  206             Rx   d 8 38 01 37 02 00 00 00 00  Length = 237926 BitCount = 123 ID = 518
   1.445404 1  102             Rx   d 8 25 03 00 00 00 00 00 28  Length = 237910 BitCount = 123 ID = 258
   1.445655 1  103             Rx   d 8 00 00 00 00 00 00 00 00  Length = 241910 BitCount = 125 ID = 259
   1.445903 1  104             Rx   d 8 B2 20 00 00 00 00 00 D2  Length = 239911 BitCount = 124 ID = 260
   1.446151 1  105             Rx   d 8 10 27 00 00 00 00 00 37  Length = 239910 BitCount = 124 ID = 261
   1.446435 1  18E00000x       Rx   d 8 00 07 E7 03 47 15 C2 0F  Length = 275910 BitCount = 142 ID = 417333248x
   1.446721 1  18E00100x       Rx   d 8 07 20 00 01 01 00 50 01  Length = 277926 BitCount = 143 ID = 417333504x
   1.458875 1  12              Rx   d 8 00 02 00 00 02 00 00 00  Length = 239911 BitCount = 124 ID = 18
   1.459877 1  112             Rx   d 8 00 00 3C 37 00 00 00 00  Length = 235910 BitCount = 122 ID = 274
   1.460581 1  102             Rx   d 8 25 03 00 00 00 00 00 28  Length = 237926 BitCount = 123 ID = 258
   1.460831 1  103             Rx   d 8 00 00 00 00 00 00 00 00  Length = 241911 BitCount = 125 ID = 259
   1.461079 1  104             Rx   d 8 B2 20 00 00 00 00 00 D2  Length = 239926 BitCount = 124 ID = 260
   1.461327 1  105             Rx   d 8 10 27 00 00 00 00 00 37  Length = 239910 BitCount = 124 ID = 261
   1.461610 1  18E00000x       Rx   d 8 00 07 E7 03 63 15 C5 0F  Length = 273926 BitCount = 141 ID = 417333248x
   1.461896 1  18E00100x       Rx   d 8 07 20 00 01 01 00 50 01  Length = 277910 BitCount = 143 ID = 417333504x
   1.469902 1  113             Rx   d 8 01 00 00 00 00 00 00 00  Length = 239910 BitCount = 124 ID = 275
   1.479873 1  12              Rx   d 8 00 02 00 00 02 00 00 00  Length = 239910 BitCount = 124 ID = 18
   1.480627 1  102             Rx   d 8 25 03 00 00 00 00 00 28  Length = 237911 BitCount = 123 ID = 258
   1.480878 1  103             Rx   d 8 00 00 00 00 00 00 00 00  Length = 241910 BitCount = 125 ID = 259
   1.481126 1  104             Rx   d 8 B2 20 00 00 00 00 00 D2  Length = 239910 BitCount = 124 ID = 260
   1.481374 1  105             Rx   d 8 10 27 00 00 00 00 00 37  Length = 239911 BitCount = 124 ID = 261
   1.481660 1  18E00000x       Rx   d 8 00 07 E7 03 7C 15 C5 0F  Length = 277910 BitCount = 143 ID = 417333248x
   1.481946 1  18E00100x       Rx   d 8 07 20 00 01 01 00 50 01  Length = 277910 BitCount = 143 ID = 417333504x
   1.500653 1  102             Rx   d 8 25 03 00 00 00 00 00 28  Length = 237910 BitCount = 123 ID = 258
   1.500902 1  12              Rx   d 8 00 02 00 00 02 00 00 00  Length = 239910 BitCount = 124 ID = 18
   1.501152 1  103             Rx   d 8 00 00 00 00 00 00 00 00  Length = 241911 BitCount = 125 ID = 259
   1.501400 1  104             Rx   d 8 B2 20 00 00 00 00 00 D2  Length = 239910 BitCount = 124 ID = 260
   1.501648 1  105             Rx   d 8 10 27 00 00 00 00 00 37  Length = 239910 BitCount = 124 ID = 261
   1.501932 1  18E00000x       Rx   d 8 00 07 E7 03 86 15 C2 0F  Length = 275910 BitCount = 142 ID = 417333248x
   1.502218 1  18E00100x       Rx   d 8 07 20 00 01 01 00 50 01  Length = 277910 BitCount = 143 ID = 417333504x
   1.513862 1  318             Rx   d 8 04 00 00 04 05 00 20 00  Length = 235926 BitCount = 122 ID = 792
   1.520713 1  102             Rx   d 8 25 03 00 00 00 00 00 28  Length = 237910 BitCount = 123 ID = 258
   1.520963 1  103             Rx   d 8 00 00 00 00 00 00 00 00  Length = 241911 BitCount = 125 ID = 259
   1.521211 1  104             Rx   d 8 B2 20 00 00 00 00 00 D2  Length = 239910 BitCount = 124 ID = 260
   1.521459 1  105             Rx   d 8 10 27 00 00 00 00 00 37  Length = 239910 BitCount = 124 ID = 261
   1.521747 1  18E00000x       Rx   d 8 00 07 E7 03 B1 15 C2 0F  Length = 279910 BitCount = 144 ID = 417333248x
   1.521995 1  12              Rx   d 8 00 02 00 00 02 00 00 00  Length = 239910 BitCount = 124 ID = 18
   1.522281 1  18E00100x       Rx   d 8 07 20 00 01 01 00 50 01  Length = 277911 BitCount = 143 ID = 417333504x
   1.538708 1  303             Rx   d 8 03 03 01 02 00 00 00 00  Length = 239911 BitCount = 124 ID = 771
   1.538953 1  302             Rx   d 8 18 04 1C 00 00 16 03 00  Length = 235910 BitCount = 122 ID = 770
   1.539197 1  304             Rx   d 8 04 30 34 33 00 00 00 00  Length = 235910 BitCount = 122 ID = 772
   1.540103 1  201             Rx   d 8 00 00 C8 00 00 00 07 CF  Length = 237926 BitCount = 123 ID = 513
   1.540351 1  202             Rx   d 8 08 01 00 00 00 00 00 09  Length = 239910 BitCount = 124 ID = 514
   1.540583 1  203             Rx   d 8 84 C5 8F F1 43 FC 14 3F  Length = 223926 BitCount = 116 ID = 515
   1.542877 1  12              Rx   d 8 00 02 00 00 02 00 00 00  Length = 239911 BitCount = 124 ID = 18
   1.543225 1  102             Rx   d 8 25 03 00 00 00 00 00 28  Length = 237910 BitCount = 123 ID = 258
   1.543476 1  103             Rx   d 8 00 00 00 00 00 00 00 00  Length = 241910 BitCount = 125 ID = 259
   1.543724 1  104             Rx   d 8 B2 20 00 00 00 00 00 D2  Length = 239910 BitCount = 124 ID = 260
   1.543972 1  105             Rx   d 8 10 27 00 00 00 00 00 37  Length = 239911 BitCount = 124 ID = 261
   1.544254 1  18E00000x       Rx   d 8 00 07 E7 03 CF 15 C5 0F  Length = 273910 BitCount = 141 ID = 417333248x
   1.544540 1  18E00100x       Rx   d 8 07 20 00 01 01 00 50 01  Length = 277926 BitCount = 143 ID = 417333504x
   1.550872 1  311             Rx   d 8 02 00 00 00 1A 00 CB 02  Length = 231910 BitCount = 120 ID = 785
   1.560819 1  102             Rx   d 8 25 03 00 00 00 00 00 28  Length = 237926 BitCount = 123 ID = 258
   1.561069 1  103             Rx   d 8 00 00 00 00 00 00 00 00  Length = 241910 BitCount = 125 ID = 259
   1.561317 1  104             Rx   d 8 B2 20 00 00 00 00 00 D2  Length = 239926 BitCount = 124 ID = 260
   1.561565 1  105             Rx   d 8 10 27 00 00 00 00 00 37  Length = 239911 BitCount = 124 ID = 261
   1.561849 1  18E00000x       Rx   d 8 00 07 E7 03 EA 15 CB 0F  Length = 275926 BitCount = 142 ID = 417333248x
   1.562135 1  18E00100x       Rx   d 8 07 20 00 01 01 00 50 01  Length = 277910 BitCount = 143 ID = 417333504x
   1.573883 1  112             Rx   d 8 00 00 3C 37 00 00 00 00  Length = 235910 BitCount = 122 ID = 274
   1.576885 1  12              Rx   d 8 00 02 00 00 02 00 00 00  Length = 239910 BitCount = 124 ID = 18
   1.580884 1  102             Rx   d 8 25 03 00 00 00 00 00 28  Length = 237910 BitCount = 123 ID = 258
   1.581134 1  103             Rx   d 8 00 00 00 00 00 00 00 00  Length = 241910 BitCount = 125 ID = 259
   1.581382 1  104             Rx   d 8 B2 20 00 00 00 00 00 D2  Length = 239911 BitCount = 124 ID = 260
   1.581630 1  105             Rx   d 8 10 27 00 00 00 00 00 37  Length = 239910 BitCount = 124 ID = 261
   1.581914 1  18E00000x       Rx   d 8 00 07 E7 03 09 16 C2 0F  Length = 275910 BitCount = 142 ID = 417333248x
   1.582154 1  315             Rx   d 8 05 05 03 03 01 00 03 03  Length = 231910 BitCount = 120 ID = 789
   1.582440 1  18E00100x       Rx   d 8 07 20 00 01 01 00 50 01  Length = 277910 BitCount = 143 ID = 417333504x
   1.583880 1  113             Rx   d 8 01 00 00 00 00 00 00 00  Length = 239910 BitCount = 124 ID = 275
   1.597872 1  12              Rx   d 8 00 02 00 00 02 00 00 00  Length = 239911 BitCount = 124 ID = 18
   1.600932 1  102             Rx   d 8 25 03 00 00 00 00 00 28  Length = 237910 BitCount = 123 ID = 258
   1.601183 1  103             Rx   d 8 00 00 00 00 00 00 00 00  Length = 241911 BitCount = 125 ID = 259
   1.601431 1  104             Rx   d 8 B2 20 00 00 00 00 00 D2  Length = 239910 BitCount = 124 ID = 260
   1.601679 1  105             Rx   d 8 10 27 00 00 00 00 00 37  Length = 239910 BitCount = 124 ID = 261
   1.601967 1  18E00000x       Rx   d 8 00 07 E7 03 24 16 C2 0F  Length = 279911 BitCount = 144 ID = 417333248x
   1.602253 1  18E00100x       Rx   d 8 07 20 00 01 01 00 50 01  Length = 277910 BitCount = 143 ID = 417333504x
   1.618875 1  12              Rx   d 8 00 02 00 00 02 00 00 00  Length = 239910 BitCount = 124 ID = 18
   1.620967 1  102             Rx   d 8 25 03 00 00 00 00 00 28  Length = 237911 BitCount = 123 ID = 258
   1.621217 1  103             Rx   d 8 00 00 00 00 00 00 00 00  Length = 241910 BitCount = 125 ID = 259
   1.621465 1  104             Rx   d 8 B2 20 00 00 00 00 00 D2  Length = 239910 BitCount = 124 ID = 260
   1.621713 1  105             Rx   d 8 10 27 00 00 00 00 00 37  Length = 239911 BitCount = 124 ID = 261
   1.622000 1  18E00000x       Rx   d 8 00 07 E7 03 42 16 C2 0F  Length = 277910 BitCount = 143 ID = 417333248x
   1.622286 1  18E00100x       Rx   d 8 07 20 00 01 01 00 50 01  Length = 277910 BitCount = 143 ID = 417333504x
   1.639871 1  12              Rx   d 8 00 02 00 00 02 00 00 00  Length = 239910 BitCount = 124 ID = 18
   1.640355 1  204             Rx   d 8 E1 FF 39 38 39 3B 40 FF  Length = 225926 BitCount = 117 ID = 516
   1.640595 1  205             Rx   d 8 C6 0F 12 B0 0F 05 00 00  Length = 231911 BitCount = 120 ID = 517
   1.640842 1  206             Rx   d 8 38 01 37 02 00 00 00 00  Length = 237926 BitCount = 123 ID = 518
   1.645896 1  102             Rx   d 8 25 03 00 00 00 00 00 28  Length = 237910 BitCount = 123 ID = 258
   1.646146 1  103             Rx   d 8 00 00 00 00 00 00 00 00  Length = 241910 BitCount = 125 ID = 259
   1.646394 1  104             Rx   d 8 B2 20 00 00 00 00 00 D2  Length = 239910 BitCount = 124 ID = 260
   1.646642 1  105             Rx   d 8 10 27 00 00 00 00 00 37  Length = 239911 BitCount = 124 ID = 261
   1.646927 1  18E00000x       Rx   d 8 00 07 E7 03 5E 16 C2 0F  Length = 275910 BitCount = 142 ID = 417333248x
   1.647213 1  18E00100x       Rx   d 8 07 20 00 01 01 00 50 01  Length = 277910 BitCount = 143 ID = 417333504x
   1.660880 1  12              Rx   d 8 00 02 00 00 02 00 00 00  Length = 239926 BitCount = 124 ID = 18
   1.661126 1  102             Rx   d 8 25 03 00 00 00 00 00 28  Length = 237926 BitCount = 123 ID = 258
   1.661377 1  103             Rx   d 8 00 00 00 00 00 00 00 00  Length = 241910 BitCount = 125 ID = 259
   1.661625 1  104             Rx   d 8 B2 20 00 00 00 00 00 D2  Length = 239926 BitCount = 124 ID = 260
   1.661873 1  105             Rx   d 8 10 27 00 00 00 00 00 37  Length = 239910 BitCount = 124 ID = 261
   1.662163 1  18E00000x       Rx   d 8 00 07 E7 03 7C 16 C2 0F  Length = 281926 BitCount = 145 ID = 417333248x
   1.662449 1  18E00100x       Rx   d 8 07 20 00 01 01 00 50 01  Length = 277911 BitCount = 143 ID = 417333504x
   1.664867 1  311             Rx   d 8 02 00 00 00 18 00 CB 02  Length = 231910 BitCount = 120 ID = 785
   1.681120 1  102             Rx   d 8 25 03 00 00 00 00 00 28  Length = 237910 BitCount = 123 ID = 258
   1.681371 1  103             Rx   d 8 00 00 00 00 00 00 00 00  Length = 241926 BitCount = 125 ID = 259
   1.681619 1  104             Rx   d 8 B2 20 00 00 00 00 00 D2  Length = 239910 BitCount = 124 ID = 260
   1.681867 1  105             Rx   d 8 10 27 00 00 00 00 00 37  Length = 239926 BitCount = 124 ID = 261
   1.682147 1  18E00000x       Rx   d 8 00 07 E7 03 9D 16 C5 0F  Length = 271911 BitCount = 140 ID = 417333248x
   1.682433 1  18E00100x       Rx   d 8 07 20 00 01 01 00 50 01  Length = 277910 BitCount = 143 ID = 417333504x
   1.687871 1  112             Rx   d 8 00 00 3C 37 00 00 00 00  Length = 235910 BitCount = 122 ID = 274
   1.694871 1  12              Rx   d 8 00 02 00 00 02 00 00 00  Length = 239910 BitCount = 124 ID = 18
   1.697877 1  113             Rx   d 8 01 00 00 00 00 00 00 00  Length = 239910 BitCount = 124 ID = 275
   1.701165 1  102             Rx   d 8 25 03 00 00 00 00 00 28  Length = 237910 BitCount = 123 ID = 258
   1.701415 1  103             Rx   d 8 00 00 00 00 00 00 00 00  Length = 241910 BitCount = 125 ID = 259
   1.701664 1  104             Rx   d 8 B2 20 00 00 00 00 00 D2  Length = 239910 BitCount = 124 ID = 260
   1.701912 1  105             Rx   d 8 10 27 00 00 00 00 00 37  Length = 239911 BitCount = 124 ID = 261
   1.702196 1  18E00000x       Rx   d 8 00 07 E7 03 BB 16 C2 0F  Length = 275910 BitCount = 142 ID = 417333248x
   1.702482 1  18E00100x       Rx   d 8 07 20 00 01 01 00 50 01  Length = 277910 BitCount = 143 ID = 417333504x
   1.715870 1  12              Rx   d 8 00 02 00 00 02 00 00 00  Length = 239910 BitCount = 124 ID = 18
   1.721216 1  102             Rx   d 8 25 03 00 00 00 00 00 28  Length = 237910 BitCount = 123 ID = 258
   1.721466 1  103             Rx   d 8 00 00 00 00 00 00 00 00  Length = 241910 BitCount = 125 ID = 259
   1.721714 1  104             Rx   d 8 B2 20 00 00 00 00 00 D2  Length = 239911 BitCount = 124 ID = 260
   1.721962 1  105             Rx   d 8 10 27 00 00 00 00 00 37  Length = 239910 BitCount = 124 ID = 261
   1.722249 1  18E00000x       Rx   d 8 00 07 E7 03 DC 16 C5 0F  Length = 277910 BitCount = 143 ID = 417333248x
   1.722535 1  18E00100x       Rx   d 8 07 20 00 01 01 00 50 01  Length = 277911 BitCount = 143 ID = 417333504x
   1.736890 1  12              Rx   d 8 00 02 00 00 02 00 00 00  Length = 239911 BitCount = 124 ID = 18
   1.739205 1  303             Rx   d 8 03 03 01 02 00 00 00 00  Length = 239910 BitCount = 124 ID = 771
   1.739449 1  302             Rx   d 8 18 04 1C 00 00 16 03 00  Length = 235911 BitCount = 122 ID = 770
   1.739699 1  304             Rx   d 8 05 00 00 00 00 00 00 00  Length = 241910 BitCount = 125 ID = 772
   1.740597 1  201             Rx   d 8 00 00 C8 00 00 00 07 CF  Length = 237926 BitCount = 123 ID = 513
   1.740845 1  202             Rx   d 8 08 01 00 00 00 00 00 09  Length = 239910 BitCount = 124 ID = 514
   1.741081 1  203             Rx   d 8 80 B2 CF EC 33 FB C8 3E  Length = 227926 BitCount = 118 ID = 515
   1.743696 1  102             Rx   d 8 25 03 00 00 00 00 00 28  Length = 237910 BitCount = 123 ID = 258
   1.743946 1  103             Rx   d 8 00 00 00 00 00 00 00 00  Length = 241910 BitCount = 125 ID = 259
   1.744194 1  104             Rx   d 8 B2 20 00 00 00 00 00 D2  Length = 239911 BitCount = 124 ID = 260
   1.744442 1  105             Rx   d 8 10 27 00 00 00 00 00 37  Length = 239910 BitCount = 124 ID = 261
   1.744728 1  18E00000x       Rx   d 8 00 07 E7 03 FD 16 C7 0F  Length = 277910 BitCount = 143 ID = 417333248x
   1.745014 1  18E00100x       Rx   d 8 07 20 00 01 01 00 50 01  Length = 277910 BitCount = 143 ID = 417333504x
   1.757862 1  12              Rx   d 8 00 02 00 00 02 00 00 00  Length = 239910 BitCount = 124 ID = 18
   1.761302 1  102             Rx   d 8 25 03 00 00 00 00 00 28  Length = 237911 BitCount = 123 ID = 258
   1.761552 1  103             Rx   d 8 00 00 00 00 00 00 00 00  Length = 241910 BitCount = 125 ID = 259
   1.761801 1  104             Rx   d 8 B2 20 00 00 00 00 00 D2  Length = 239910 BitCount = 124 ID = 260
   1.762049 1  105             Rx   d 8 10 27 00 00 00 00 00 37  Length = 239911 BitCount = 124 ID = 261
   1.762339 1  18E00000x       Rx   d 8 00 07 E7 03 20 17 C2 0F  Length = 281910 BitCount = 145 ID = 417333248x
   1.762625 1  18E00100x       Rx   d 8 07 20 00 01 01 00 50 01  Length = 277910 BitCount = 143 ID = 417333504x
   1.778859 1  12              Rx   d 8 00 02 00 00 02 00 00 00  Length = 239910 BitCount = 124 ID = 18
   1.779865 1  311             Rx   d 8 02 00 00 00 16 00 CB 02  Length = 229910 BitCount = 119 ID = 785
   1.781373 1  102             Rx   d 8 25 03 00 00 00 00 00 28  Length = 237910 BitCount = 123 ID = 258
   1.781623 1  103             Rx   d 8 00 00 00 00 00 00 00 00  Length = 241926 BitCount = 125 ID = 259
   1.781871 1  104             Rx   d 8 B2 20 00 00 00 00 00 D2  Length = 239910 BitCount = 124 ID = 260
   1.782119 1  105             Rx   d 8 10 27 00 00 00 00 00 37  Length = 239926 BitCount = 124 ID = 261
   1.782403 1  18E00000x       Rx   d 8 00 07 E7 03 46 17 C5 0F  Length = 275910 BitCount = 142 ID = 417333248x
   1.782690 1  18E00100x       Rx   d 8 07 20 00 01 01 00 50 01  Length = 277926 BitCount = 143 ID = 417333504x
   1.801431 1  102             Rx   d 8 25 03 00 00 00 00 00 28  Length = 237926 BitCount = 123 ID = 258
   1.801681 1  103             Rx   d 8 00 00 00 00 00 00 00 00  Length = 241910 BitCount = 125 ID = 259
   1.801929 1  104             Rx   d 8 B2 20 00 00 00 00 00 D2  Length = 240152 BitCount = 124 ID = 260
   1.802178 1  105             Rx   d 8 10 27 00 00 00 00 00 37  Length = 240152 BitCount = 124 ID = 261
   1.802422 1  112             Rx   d 8 00 00 3C 37 00 00 00 00  Length = 235910 BitCount = 122 ID = 274
   1.802706 1  18E00000x       Rx   d 8 00 07 E7 03 69 17 C5 0F  Length = 275911 BitCount = 142 ID = 417333248x
   1.802992 1  18E00100x       Rx   d 8 07 20 00 01 01 00 50 01  Length = 277910 BitCount = 143 ID = 417333504x
   1.808864 1  315             Rx   d 8 05 05 03 03 01 00 03 03  Length = 231910 BitCount = 120 ID = 789
   1.811878 1  113             Rx   d 8 01 00 00 00 00 00 00 00  Length = 239911 BitCount = 124 ID = 275
   1.812872 1  12              Rx   d 8 00 02 00 00 02 00 00 00  Length = 239910 BitCount = 124 ID = 18
   1.821480 1  102             Rx   d 8 25 03 00 00 00 00 00 28  Length = 237910 BitCount = 123 ID = 258
   1.821731 1  103             Rx   d 8 00 00 00 00 00 00 00 00  Length = 241910 BitCount = 125 ID = 259
   1.821979 1  104             Rx   d 8 B2 20 00 00 00 00 00 D2  Length = 239910 BitCount = 124 ID = 260
   1.822227 1  105             Rx   d 8 10 27 00 00 00 00 00 37  Length = 239910 BitCount = 124 ID = 261
   1.822511 1  18E00000x       Rx   d 8 00 07 E7 03 87 17 C5 0F  Length = 275911 BitCount = 142 ID = 417333248x
   1.822797 1  18E00100x       Rx   d 8 07 20 00 01 01 00 50 01  Length = 277910 BitCount = 143 ID = 417333504x
   1.833879 1  12              Rx   d 8 00 02 00 00 02 00 00 00  Length = 239910 BitCount = 124 ID = 18
   1.840835 1  204             Rx   d 8 22 FF FF FF FF FF FF FF  Length = 241910 BitCount = 125 ID = 516
   1.841075 1  205             Rx   d 8 C6 0F 12 B0 0F 05 00 00  Length = 231911 BitCount = 120 ID = 517
   1.841322 1  206             Rx   d 8 38 01 37 02 00 00 00 00  Length = 237910 BitCount = 123 ID = 518
   1.846412 1  102             Rx   d 8 25 03 00 00 00 00 00 28  Length = 237910 BitCount = 123 ID = 258
   1.846662 1  103             Rx   d 8 00 00 00 00 00 00 00 00  Length = 241910 BitCount = 125 ID = 259
   1.846910 1  104             Rx   d 8 B2 20 00 00 00 00 00 D2  Length = 239911 BitCount = 124 ID = 260
   1.847159 1  105             Rx   d 8 10 27 00 00 00 00 00 37  Length = 239910 BitCount = 124 ID = 261
   1.847445 1  18E00000x       Rx   d 8 00 07 E7 03 AA 17 C5 0F  Length = 277910 BitCount = 143 ID = 417333248x
   1.847731 1  18E00100x       Rx   d 8 07 20 00 01 01 00 50 01  Length = 277910 BitCount = 143 ID = 417333504x
   1.853857 1  317             Rx   d 8 50 35 15 32 33 00 00 00  Length = 223910 BitCount = 116 ID = 791
   1.854869 1  12              Rx   d 8 00 02 00 00 02 00 00 00  Length = 239910 BitCount = 124 ID = 18
   1.861555 1  102             Rx   d 8 25 03 00 00 00 00 00 28  Length = 237910 BitCount = 123 ID = 258
   1.861805 1  103             Rx   d 8 00 00 00 00 00 00 00 00  Length = 241910 BitCount = 125 ID = 259
   1.862054 1  104             Rx   d 8 B2 20 00 00 00 00 00 D2  Length = 239911 BitCount = 124 ID = 260
   1.862302 1  105             Rx   d 8 10 27 00 00 00 00 00 37  Length = 239910 BitCount = 124 ID = 261
   1.862588 1  18E00000x       Rx   d 8 00 07 E7 03 CD 17 C5 0F  Length = 277910 BitCount = 143 ID = 417333248x
   1.862874 1  18E00100x       Rx   d 8 07 20 00 01 01 00 50 01  Length = 277911 BitCount = 143 ID = 417333504x
   1.875868 1  12              Rx   d 8 00 02 00 00 02 00 00 00  Length = 239911 BitCount = 124 ID = 18
   1.881618 1  102             Rx   d 8 25 03 00 00 00 00 00 28  Length = 237910 BitCount = 123 ID = 258
   1.881868 1  103             Rx   d 8 00 00 00 00 00 00 00 00  Length = 241926 BitCount = 125 ID = 259
   1.882116 1  104             Rx   d 8 B2 20 00 00 00 00 00 D2  Length = 239910 BitCount = 124 ID = 260
   1.882365 1  105             Rx   d 8 10 27 00 00 00 00 00 37  Length = 239926 BitCount = 124 ID = 261
   1.882655 1  18E00000x       Rx   d 8 00 07 E7 03 F3 17 C2 0F  Length = 281911 BitCount = 145 ID = 417333248x
   1.882941 1  18E00100x       Rx   d 8 07 20 00 01 01 00 50 01  Length = 277926 BitCount = 143 ID = 417333504x
   1.892863 1  311             Rx   d 8 02 00 00 00 14 00 CA 02  Length = 233910 BitCount = 121 ID = 785
   1.896869 1  12              Rx   d 8 00 02 00 00 02 00 00 00  Length = 239910 BitCount = 124 ID = 18
   1.901669 1  102             Rx   d 8 25 03 00 00 00 00 00 28  Length = 237926 BitCount = 123 ID = 258
   1.901919 1  103             Rx   d 8 00 00 00 00 00 00 00 00  Length = 241910 BitCount = 125 ID = 259
   1.902167 1  104             Rx   d 8 B2 20 00 00 00 00 00 D2  Length = 239926 BitCount = 124 ID = 260
   1.902415 1  105             Rx   d 8 10 27 00 00 00 00 00 37  Length = 239911 BitCount = 124 ID = 261
   1.902704 1  18E00000x       Rx   d 8 00 07 E7 03 14 18 C2 0F  Length = 279926 BitCount = 144 ID = 417333248x
   1.902990 1  18E00100x       Rx   d 8 07 20 00 01 01 00 50 01  Length = 277910 BitCount = 143 ID = 417333504x
   1.915867 1  112             Rx   d 8 00 00 3C 37 00 00 00 00  Length = 235910 BitCount = 122 ID = 274
   1.921702 1  102             Rx   d 8 25 03 00 00 00 00 00 28  Length = 237910 BitCount = 123 ID = 258
   1.921952 1  103             Rx   d 8 00 00 00 00 00 00 00 00  Length = 241926 BitCount = 125 ID = 259
   1.922200 1  104             Rx   d 8 B2 20 00 00 00 00 00 D2  Length = 239910 BitCount = 124 ID = 260
   1.922448 1  105             Rx   d 8 10 27 00 00 00 00 00 37  Length = 239926 BitCount = 124 ID = 261
   1.922734 1  18E00000x       Rx   d 8 00 07 E7 03 3F 18 C2 0F  Length = 277910 BitCount = 143 ID = 417333248x
   1.923020 1  18E00100x       Rx   d 8 07 20 00 01 01 00 50 01  Length = 277910 BitCount = 143 ID = 417333504x
   1.925900 1  113             Rx   d 8 01 00 00 00 00 00 00 00  Length = 239911 BitCount = 124 ID = 275
   1.930864 1  12              Rx   d 8 00 02 00 00 02 00 00 00  Length = 239926 BitCount = 124 ID = 18
   1.937713 1  18E00001x       Rx   d 8 60 00 2C 04 F3 01 2C 04  Length = 271910 BitCount = 140 ID = 417333249x
   1.938703 1  305             Rx   d 8 00 33 01 22 08 02 02 00  Length = 233926 BitCount = 121 ID = 773
   1.938941 1  306             Rx   d 8 00 33 01 22 08 03 01 01  Length = 229910 BitCount = 119 ID = 774
   1.939231 1  18E0000Bx       Rx   d 8 00 00 00 00 00 00 01 00  Length = 281926 BitCount = 145 ID = 417333259x
   1.939726 1  303             Rx   d 8 03 03 01 02 00 00 00 00  Length = 239926 BitCount = 124 ID = 771
   1.939970 1  302             Rx   d 8 18 04 1C 00 00 16 03 00  Length = 235910 BitCount = 122 ID = 770
   1.940204 1  304             Rx   d 8 01 30 33 4E 4D 45 30 38  Length = 225926 BitCount = 117 ID = 772
   1.941106 1  201             Rx   d 8 00 00 C8 00 00 00 07 CF  Length = 237911 BitCount = 123 ID = 513
   1.941354 1  202             Rx   d 8 08 01 00 00 00 00 00 09  Length = 239910 BitCount = 124 ID = 514
   1.941594 1  203             Rx   d 8 81 B0 0F F1 43 FC 08 3F  Length = 231910 BitCount = 120 ID = 515
   1.943515 1  102             Rx   d 8 25 03 00 00 00 00 00 28  Length = 237910 BitCount = 123 ID = 258
   1.943765 1  103             Rx   d 8 00 00 00 00 00 00 00 00  Length = 241911 BitCount = 125 ID = 259
   1.944013 1  104             Rx   d 8 B2 20 00 00 00 00 00 D2  Length = 239910 BitCount = 124 ID = 260
   1.944261 1  105             Rx   d 8 10 27 00 00 00 00 00 37  Length = 239910 BitCount = 124 ID = 261
   1.944545 1  18E00000x       Rx   d 8 00 07 E7 03 64 18 C5 0F  Length = 275910 BitCount = 142 ID = 417333248x
   1.944831 1  18E00100x       Rx   d 8 07 20 00 01 01 00 50 01  Length = 277910 BitCount = 143 ID = 417333504x
   1.951865 1  12              Rx   d 8 00 02 00 00 02 00 00 00  Length = 239910 BitCount = 124 ID = 18
   1.961824 1  102             Rx   d 8 25 03 00 00 00 00 00 28  Length = 237910 BitCount = 123 ID = 258
   1.962074 1  103             Rx   d 8 00 00 00 00 00 00 00 00  Length = 241910 BitCount = 125 ID = 259
   1.962322 1  104             Rx   d 8 B2 20 00 00 00 00 00 D2  Length = 239910 BitCount = 124 ID = 260
   1.962570 1  105             Rx   d 8 10 27 00 00 00 00 00 37  Length = 239910 BitCount = 124 ID = 261
   1.962852 1  18E00000x       Rx   d 8 00 07 E7 03 8F 18 C5 0F  Length = 273911 BitCount = 141 ID = 417333248x
   1.963139 1  18E00100x       Rx   d 8 07 20 00 01 01 00 50 01  Length = 277910 BitCount = 143 ID = 417333504x
   1.971852 1  312             Rx   d 8 01 32 30 32 33 30 33 32  Length = 225926 BitCount = 117 ID = 786
   1.972864 1  12              Rx   d 8 00 02 00 00 02 00 00 00  Length = 239910 BitCount = 124 ID = 18
   1.973855 1  312             Rx   d 8 02 35 30 30 30 31 00 00  Length = 227910 BitCount = 118 ID = 786
   1.981869 1  102             Rx   d 8 25 03 00 00 00 00 00 28  Length = 237910 BitCount = 123 ID = 258
   1.982119 1  103             Rx   d 8 00 00 00 00 00 00 00 00  Length = 241910 BitCount = 125 ID = 259
   1.982367 1  104             Rx   d 8 B2 20 00 00 00 00 00 D2  Length = 239910 BitCount = 124 ID = 260
   1.982616 1  105             Rx   d 8 10 27 00 00 00 00 00 37  Length = 239911 BitCount = 124 ID = 261
   1.982896 1  18E00000x       Rx   d 8 00 07 E7 03 B7 18 C5 0F  Length = 271910 BitCount = 140 ID = 417333248x
   1.983182 1  18E00100x       Rx   d 8 07 20 00 01 01 00 50 01  Length = 277926 BitCount = 143 ID = 417333504x
   1.993882 1  12              Rx   d 8 00 02 00 00 02 00 00 00  Length = 239910 BitCount = 124 ID = 18
   2.001902 1  102             Rx   d 8 25 03 00 00 00 00 00 28  Length = 237926 BitCount = 123 ID = 258
   2.002152 1  103             Rx   d 8 00 00 00 00 00 00 00 00  Length = 241910 BitCount = 125 ID = 259
   2.002400 1  104             Rx   d 8 B2 20 00 00 00 00 00 D2  Length = 239926 BitCount = 124 ID = 260
   2.002649 1  105             Rx   d 8 10 27 00 00 00 00 00 37  Length = 239910 BitCount = 124 ID = 261
   2.002935 1  18E00000x       Rx   d 8 00 07 E7 03 E5 18 C5 0F  Length = 277926 BitCount = 143 ID = 417333248x
   2.003221 1  18E00100x       Rx   d 8 07 20 00 01 01 00 50 01  Length = 277910 BitCount = 143 ID = 417333504x
   2.006875 1  311             Rx   d 8 02 00 00 00 14 00 CA 02  Length = 233910 BitCount = 121 ID = 785
   2.010266 1  Statistic: D 326 R 0 XD 103 XR 0 E 0 O 0 B 10.97%
   2.010266 CAN 1 Status:chip status error active
   2.010266 2  Statistic: D 0 R 0 XD 0 XR 0 E 0 O 0 B 0.00%
   2.010266 CAN 2 Status:chip status error active
   2.014855 1  12              Rx   d 8 00 02 00 00 02 00 00 00  Length = 239911 BitCount = 124 ID = 18
   2.021937 1  102             Rx   d 8 25 03 00 00 00 00 00 28  Length = 237910 BitCount = 123 ID = 258
   2.022187 1  103             Rx   d 8 00 00 00 00 00 00 00 00  Length = 241926 BitCount = 125 ID = 259
   2.022436 1  104             Rx   d 8 B2 20 00 00 00 00 00 D2  Length = 239910 BitCount = 124 ID = 260
   2.022684 1  105             Rx   d 8 10 27 00 00 00 00 00 37  Length = 239926 BitCount = 124 ID = 261
   2.022972 1  18E00000x       Rx   d 8 00 07 E7 03 0F 19 C2 0F  Length = 279911 BitCount = 144 ID = 417333248x
   2.023258 1  18E00100x       Rx   d 8 07 20 00 01 01 00 50 01  Length = 277926 BitCount = 143 ID = 417333504x
   2.029866 1  112             Rx   d 8 00 00 3C 37 00 00 00 00  Length = 235910 BitCount = 122 ID = 274
   2.035860 1  315             Rx   d 8 05 05 03 03 01 00 03 03  Length = 231910 BitCount = 120 ID = 789
   2.039872 1  113             Rx   d 8 01 00 00 00 00 00 00 00  Length = 239911 BitCount = 124 ID = 275
   2.041316 1  204             Rx   d 8 E0 38 37 38 38 FF FF FF  Length = 231910 BitCount = 120 ID = 516
   2.041556 1  205             Rx   d 8 C6 0F 12 B0 0F 05 00 00  Length = 231910 BitCount = 120 ID = 517
   2.041802 1  206             Rx   d 8 38 01 37 02 00 00 00 00  Length = 237911 BitCount = 123 ID = 518
   2.042985 1  102             Rx   d 8 25 03 00 00 00 00 00 28  Length = 237926 BitCount = 123 ID = 258
   2.043235 1  103             Rx   d 8 00 00 00 00 00 00 00 00  Length = 241910 BitCount = 125 ID = 259
   2.043483 1  104             Rx   d 8 B2 20 00 00 00 00 00 D2  Length = 239926 BitCount = 124 ID = 260
   2.043731 1  105             Rx   d 8 10 27 00 00 00 00 00 37  Length = 239911 BitCount = 124 ID = 261
   2.044015 1  18E00000x       Rx   d 8 00 07 E7 03 3D 19 C2 0F  Length = 275926 BitCount = 142 ID = 417333248x
   2.044301 1  18E00100x       Rx   d 8 07 20 00 01 01 00 50 01  Length = 277910 BitCount = 143 ID = 417333504x
   2.048865 1  12              Rx   d 8 00 02 00 00 02 00 00 00  Length = 239910 BitCount = 124 ID = 18
   2.062030 1  102             Rx   d 8 25 03 00 00 00 00 00 28  Length = 237910 BitCount = 123 ID = 258
   2.062280 1  103             Rx   d 8 00 00 00 00 00 00 00 00  Length = 241911 BitCount = 125 ID = 259
   2.062528 1  104             Rx   d 8 B2 20 00 00 00 00 00 D2  Length = 239910 BitCount = 124 ID = 260
   2.062777 1  105             Rx   d 8 10 27 00 00 00 00 00 37  Length = 239910 BitCount = 124 ID = 261
   2.063065 1  18E00000x       Rx   d 8 00 07 E7 03 6C 19 C2 0F  Length = 279910 BitCount = 144 ID = 417333248x
   2.063351 1  18E00100x       Rx   d 8 07 20 00 01 01 00 50 01  Length = 277910 BitCount = 143 ID = 417333504x
   2.069867 1  12              Rx   d 8 00 02 00 00 02 00 00 00  Length = 239926 BitCount = 124 ID = 18
   2.079872 1  318             Rx   d 8 05 00 00 00 00 00 00 00  Length = 239910 BitCount = 124 ID = 792
   2.082095 1  102             Rx   d 8 25 03 00 00 00 00 00 28  Length = 237911 BitCount = 123 ID = 258
   2.082345 1  103             Rx   d 8 00 00 00 00 00 00 00 00  Length = 241910 BitCount = 125 ID = 259
   2.082593 1  104             Rx   d 8 B2 20 00 00 00 00 00 D2  Length = 239910 BitCount = 124 ID = 260
   2.082841 1  105             Rx   d 8 10 27 00 00 00 00 00 37  Length = 239910 BitCount = 124 ID = 261
   2.083123 1  18E00000x       Rx   d 8 00 07 E7 03 9C 19 C7 0F  Length = 273910 BitCount = 141 ID = 417333248x
   2.083409 1  18E00100x       Rx   d 8 07 20 00 01 01 00 50 01  Length = 277911 BitCount = 143 ID = 417333504x
   2.090863 1  12              Rx   d 8 00 02 00 00 02 00 00 00  Length = 239910 BitCount = 124 ID = 18
   2.102140 1  102             Rx   d 8 25 03 00 00 00 00 00 28  Length = 237910 BitCount = 123 ID = 258
   2.102390 1  103             Rx   d 8 00 00 00 00 00 00 00 00  Length = 241910 BitCount = 125 ID = 259
   2.102638 1  104             Rx   d 8 B2 20 00 00 00 00 00 D2  Length = 239910 BitCount = 124 ID = 260
   2.102886 1  105             Rx   d 8 10 27 00 00 00 00 00 37  Length = 239910 BitCount = 124 ID = 261
   2.103173 1  18E00000x       Rx   d 8 00 07 E7 03 C4 19 C2 0F  Length = 277911 BitCount = 143 ID = 417333248x
   2.103459 1  18E00100x       Rx   d 8 07 20 00 01 01 00 50 01  Length = 277910 BitCount = 143 ID = 417333504x
   2.111865 1  12              Rx   d 8 00 02 00 00 02 00 00 00  Length = 239910 BitCount = 124 ID = 18
   2.120856 1  311             Rx   d 8 02 00 00 00 14 00 CA 02  Length = 233910 BitCount = 121 ID = 785
   2.122189 1  102             Rx   d 8 25 03 00 00 00 00 00 28  Length = 237910 BitCount = 123 ID = 258
   2.122439 1  103             Rx   d 8 00 00 00 00 00 00 00 00  Length = 241910 BitCount = 125 ID = 259
   2.122687 1  104             Rx   d 8 B2 20 00 00 00 00 00 D2  Length = 239910 BitCount = 124 ID = 260
   2.122935 1  105             Rx   d 8 10 27 00 00 00 00 00 37  Length = 239926 BitCount = 124 ID = 261
   2.123221 1  18E00000x       Rx   d 8 00 07 E7 03 FC 19 C5 0F  Length = 277910 BitCount = 143 ID = 417333248x
   2.123507 1  18E00100x       Rx   d 8 07 20 00 01 01 00 50 01  Length = 277926 BitCount = 143 ID = 417333504x
   2.140190 1  303             Rx   d 8 03 03 01 02 00 00 00 00  Length = 239910 BitCount = 124 ID = 771
   2.140435 1  302             Rx   d 8 18 04 1C 00 00 16 04 00  Length = 235910 BitCount = 122 ID = 770
   2.140667 1  304             Rx   d 8 02 54 51 4C 30 30 31 47  Length = 223911 BitCount = 116 ID = 772
   2.141559 1  201             Rx   d 8 00 00 C8 00 00 00 07 CF  Length = 237910 BitCount = 123 ID = 513
   2.141807 1  202             Rx   d 8 08 01 00 00 00 00 00 09  Length = 239910 BitCount = 124 ID = 514
   2.142045 1  203             Rx   d 8 82 C4 4F F1 03 FB E4 3E  Length = 229910 BitCount = 119 ID = 515
   2.144719 1  112             Rx   d 8 00 00 3C 37 00 00 00 00  Length = 235926 BitCount = 122 ID = 274
   2.145861 1  12              Rx   d 8 00 02 00 00 02 00 00 00  Length = 239910 BitCount = 124 ID = 18
   2.147141 1  102             Rx   d 8 25 03 00 00 00 00 00 28  Length = 237926 BitCount = 123 ID = 258
   2.147392 1  103             Rx   d 8 00 00 00 00 00 00 00 00  Length = 241911 BitCount = 125 ID = 259
   2.147640 1  104             Rx   d 8 B2 20 00 00 00 00 00 D2  Length = 239926 BitCount = 124 ID = 260
   2.147888 1  105             Rx   d 8 10 27 00 00 00 00 00 37  Length = 239910 BitCount = 124 ID = 261
   2.148170 1  18E00000x       Rx   d 8 00 07 E7 03 26 1A C5 0F  Length = 273926 BitCount = 141 ID = 417333248x
   2.148456 1  18E00100x       Rx   d 8 07 20 00 01 01 00 50 01  Length = 277911 BitCount = 143 ID = 417333504x
   2.153866 1  113             Rx   d 8 01 00 00 00 00 00 00 00  Length = 239911 BitCount = 124 ID = 275
   2.162297 1  102             Rx   d 8 25 03 00 00 00 00 00 28  Length = 237911 BitCount = 123 ID = 258
   2.162547 1  103             Rx   d 8 00 00 00 00 00 00 00 00  Length = 241910 BitCount = 125 ID = 259
   2.162795 1  104             Rx   d 8 B2 20 00 00 00 00 00 D2  Length = 239910 BitCount = 124 ID = 260
   2.163043 1  105             Rx   d 8 10 27 00 00 00 00 00 37  Length = 239926 BitCount = 124 ID = 261
   2.163325 1  18E00000x       Rx   d 8 00 07 E7 03 54 1A C5 0F  Length = 273910 BitCount = 141 ID = 417333248x
   2.163611 1  18E00100x       Rx   d 8 07 20 00 01 01 00 50 01  Length = 277910 BitCount = 143 ID = 417333504x
   2.166859 1  12              Rx   d 8 00 02 00 00 02 00 00 00  Length = 239926 BitCount = 124 ID = 18
